date Thu Oct 01 20:24:59.352 2026
base hex  timestamps absolute
internal events logged
Begin Triggerblock Thu Oct 01 20:24:58.803 2026
 0.000000 Start of measurement
 0.000000 1  B1              Rx   d 8 A5 00 5B FF 00 00 00 00
 0.003284 1  800x            Rx   d 8 00 00 00 00 00 00 00 00
 0.007643 1  800x            Rx   d 8 00 00 00 00 00 00 00 00
 0.010027 1  A3              Rx   d 8 F3 C5 35 1F 10 00 00 00
 0.016959 1  A6              Rx   d 8 FF FF 00 00 FC FF 00 00
 0.020499 1  B1              Rx   d 8 A5 00 5B FF 00 00 00 00
 0.027220 1  800x            Rx   d 8 00 00 00 00 00 00 00 00
 0.032427 1  800x            Rx   d 8 00 00 00 00 00 00 00 00
 0.036163 1  A3              Rx   d 8 F3 C5 35 1F 11 00 00 00
 0.041038 1  B1              Rx   d 8 A5 00 5B FF 00 00 00 00
 0.047107 1  800x            Rx   d 8 00 00 00 00 00 00 00 00
 0.052179 1  800x            Rx   d 8 00 00 00 00 00 00 00 00
 0.053018 1  A0              Rx   d 8 18 01 0D 01 0B 01 72 01
 0.059207 1  A9              Rx   d 8 95 00 FC 00 FB 01 5B 09
 0.062798 1  B1              Rx   d 8 A5 00 5B FF 00 00 00 00
 0.071601 1  800x            Rx   d 8 00 00 00 00 00 00 00 00
 0.071601 1  A3              Rx   d 8 F3 C5 35 1F 10 00 00 00
 0.078802 1  A6              Rx   d 8 01 00 00 00 FB FF 00 00
 0.078802 1  800x            Rx   d 8 00 00 00 00 00 00 00 00
 0.078802 1  800x            Rx   d 8 00 00 00 00 00 00 00 00
 0.094692 1  A3              Rx   d 8 F3 C5 35 1F 10 00 00 00
 0.098377 1  A4              Rx   d 8 00 00 00 00 00 01 00 00
 0.103614 1  B1              Rx   d 8 A5 00 5B FF 00 00 00 00
 0.110355 1  800x            Rx   d 8 00 00 00 00 00 00 00 00
 0.114382 1  800x            Rx   d 8 00 00 00 00 00 00 00 00
 0.118412 1  A3              Rx   d 8 F3 C5 35 1F 10 00 00 00
 0.118412 1  B1              Rx   d 8 A5 00 5B FF 00 00 00 00
 0.128589 1  800x            Rx   d 8 00 00 00 00 00 00 00 00
 0.130605 1  800x            Rx   d 8 00 00 00 00 00 00 00 00
 0.139093 1  A3              Rx   d 8 F3 C5 35 1F 10 00 00 00
 0.143739 1  A6              Rx   d 8 FE FF FD FF FF FF 00 00
 0.144905 1  B1              Rx   d 8 A5 00 5B FF 00 00 00 00
 0.153532 1  800x            Rx   d 8 00 00 00 00 00 00 00 00
 0.157727 1  A0              Rx   d 8 18 01 0D 01 0B 01 72 01
 0.161767 1  AE              Rx   d 8 10 00 30 65 24 05 24 20
 0.168287 1  800x            Rx   d 8 00 00 00 00 00 00 00 00
 0.173371 1  800x            Rx   d 8 00 00 00 00 00 00 00 00
 0.177467 1  A3              Rx   d 8 F3 C5 35 1F 10 00 00 00
 0.181894 1  A4              Rx   d 8 00 00 00 00 00 01 00 00
 0.184608 1  B1              Rx   d 8 A5 00 5B FF 00 00 00 00
 0.189481 1  800x            Rx   d 8 00 00 00 00 00 00 00 00
 0.189481 1  800x            Rx   d 8 00 00 00 00 00 00 00 00
 0.198418 1  A3              Rx   d 8 F3 C5 35 1F 10 00 00 00
 0.207292 1  A8              Rx   d 8 00 00 00 00 FF FF FF FF
 0.211102 1  B1              Rx   d 8 A5 00 5B FF 00 00 00 00
 0.216397 1  800x            Rx   d 8 00 00 00 00 00 00 00 00
 0.221576 1  800x            Rx   d 8 00 00 00 00 00 00 00 00
 0.226020 1  A3              Rx   d 8 F3 C5 35 1F 10 00 00 00
 0.226020 1  B1              Rx   d 8 A5 00 5B FF 00 00 00 00
 0.233963 1  800x            Rx   d 8 00 00 00 00 00 00 00 00
 0.239919 1  A3              Rx   d 8 F3 C1 35 1F 10 00 00 00
 0.239919 1  A4              Rx   d 8 00 00 00 00 00 01 00 00
 0.250286 1  800x            Rx   d 8 00 00 00 00 00 00 00 00
 0.254485 1  800x            Rx   d 8 00 00 00 00 00 00 00 00
 0.260221 1  A0              Rx   d 8 18 01 0D 01 0B 01 72 01
 0.263995 1  AE              Rx   d 8 10 00 30 65 24 05 24 20
 0.269313 1  AB              Rx   d 8 00 00 00 00 00 08 00 00
 0.273900 1  800x            Rx   d 8 00 00 00 00 00 00 00 00
 0.279326 1  800x            Rx   d 8 00 00 00 00 00 00 00 00
 0.285125 1  A3              Rx   d 8 F3 C5 35 1F 10 00 00 00
 0.285716 1  A4              Rx   d 8 00 00 00 00 00 01 00 00
 0.285716 1  B1              Rx   d 8 A5 00 5B FF 00 00 00 00
 0.298327 1  800x            Rx   d 8 00 00 00 00 00 00 00 00
 0.302994 1  800x            Rx   d 8 00 00 00 00 00 00 00 00
 0.302994 1  A3              Rx   d 8 F3 C5 35 1F 10 00 00 00
 0.314068 1  B1              Rx   d 8 A5 00 5B FF 00 00 00 00
 0.317073 1  800x            Rx   d 8 00 00 00 00 00 00 00 00
 0.317073 1  A3              Rx   d 8 F3 C5 35 1F 10 00 00 00
 0.317073 1  A4              Rx   d 8 00 00 00 00 00 01 00 00
 0.333125 1  AB              Rx   d 8 00 00 00 00 00 08 00 00
 0.333125 1  800x            Rx   d 8 00 00 00 00 00 00 00 00
 0.333125 1  800x            Rx   d 8 00 00 00 00 00 00 00 00
 0.333125 1  A3              Rx   d 8 F3 C5 35 1F 10 00 00 00
 0.349113 1  A4              Rx   d 8 00 00 00 00 00 01 00 00
 0.349113 1  B1              Rx   d 8 A5 00 5B FF 00 00 00 00
 0.349113 1  800x            Rx   d 8 00 00 00 00 00 00 00 00
 0.365921 1  AE              Rx   d 8 10 00 30 65 24 05 24 20
 0.372020 1  800x            Rx   d 8 00 00 00 00 00 00 00 00
 0.374038 1  B1              Rx   d 8 A5 00 5B FF 00 00 00 00
 0.382453 1  800x            Rx   d 8 00 00 00 00 00 00 00 00
 0.386496 1  800x            Rx   d 8 00 00 00 00 00 00 00 00
 0.386496 1  A3              Rx   d 8 F3 C5 35 1F 10 00 00 00
 0.386496 1  AA              Rx   d 8 07 0C 09 00 00 F0 C0 00
 0.396620 1  B1              Rx   d 8 A5 00 5B FF 00 00 00 00
 0.396620 1  800x            Rx   d 8 00 00 00 00 00 00 00 00
 0.396620 1  A3              Rx   d 8 F3 C5 35 1F 10 00 00 00
 0.412329 1  A4              Rx   d 8 00 00 00 00 00 01 00 00
 0.412329 1  800x            Rx   d 8 00 00 00 00 00 00 00 00
 0.412329 1  800x            Rx   d 8 00 00 00 00 00 00 00 00
 0.427973 1  A3              Rx   d 8 F3 C5 35 1F 10 00 00 00
 0.427973 1  A4              Rx   d 8 00 00 00 00 00 01 00 00
 0.427973 1  B1              Rx   d 8 A5 00 5B FF 00 00 00 00
 0.443793 1  800x            Rx   d 8 00 00 00 00 00 00 00 00
 0.443793 1  800x            Rx   d 8 00 00 00 00 00 00 00 00
 0.443793 1  A3              Rx   d 8 F3 C5 35 1F 10 00 00 00
 0.443793 1  AB              Rx   d 8 00 00 00 00 00 08 00 00
 0.459908 1  B1              Rx   d 8 A5 00 5B FF 00 00 00 00
 0.459908 1  AE              Rx   d 8 10 00 30 65 24 05 24 20
 0.471961 1  800x            Rx   d 8 00 00 00 00 00 00 00 00
 0.476024 1  A3              Rx   d 8 F3 C5 35 1F 10 00 00 00
 0.476024 1  B1              Rx   d 8 A5 00 5B FF 00 00 00 00
 0.483697 1  800x            Rx   d 8 00 00 00 00 00 00 00 00
 0.492393 1  A3              Rx   d 8 F3 C5 35 1F 10 00 00 00
 0.494694 1  A4              Rx   d 8 00 00 00 00 00 01 00 00
 0.494694 1  800x            Rx   d 8 00 00 00 00 00 00 00 00
 0.507455 1  800x            Rx   d 8 00 00 00 00 00 00 00 00
 0.512251 1  A3              Rx   d 8 F3 C5 35 1F 10 00 00 00
 0.517167 1  A4              Rx   d 8 00 00 00 00 00 01 00 00
 0.517167 1  AB              Rx   d 8 00 00 00 00 00 08 00 00
 0.527307 1  800x            Rx   d 8 00 00 00 00 00 00 00 00
 0.527307 1  800x            Rx   d 8 00 00 00 00 00 00 00 00
 0.527307 1  A3              Rx   d 8 F3 C5 35 1F 10 00 00 00
 0.539294 1  A4              Rx   d 8 00 00 00 00 00 01 00 00
 0.545702 1  B1              Rx   d 8 A5 00 5B FF 00 00 00 00
 0.555266 1  800x            Rx   d 8 00 00 00 00 00 00 00 00
 0.557808 1  800x            Rx   d 8 00 00 00 00 00 00 00 00
 0.563837 1  A3              Rx   d 8 F3 C5 35 1F 10 00 00 00
 0.563837 1  B1              Rx   d 8 A5 00 5B FF 00 00 00 00
 0.563837 1  AE              Rx   d 8 10 00 30 65 24 05 24 20
 0.572266 1  800x            Rx   d 8 00 00 00 00 00 00 00 00
 0.585433 1  A3              Rx   d 8 F3 C5 35 1F 10 00 00 00
 0.587238 1  A8              Rx   d 8 00 00 00 00 FD FF FB FF
 0.589256 1  800x            Rx   d 8 00 00 00 00 00 00 00 00
 0.595473 1  800x            Rx   d 8 00 00 00 00 00 00 00 00
 0.595473 1  A3              Rx   d 8 F3 C5 35 1F 10 00 00 00
 0.603284 1  A4              Rx   d 8 00 00 00 00 00 01 00 00
 0.607963 1  B1              Rx   d 8 A5 00 5B FF 00 00 00 00
 0.607963 1  800x            Rx   d 8 00 00 00 00 00 00 00 00
 0.619097 1  800x            Rx   d 8 00 00 00 00 00 00 00 00
 0.621109 1  A3              Rx   d 8 F3 C5 35 1F 10 00 00 00
 0.621109 1  B1              Rx   d 8 A5 00 5B FF 00 00 00 00
 0.621109 1  800x            Rx   d 8 00 00 00 00 00 00 00 00
 0.635137 1  800x            Rx   d 8 00 00 00 00 00 00 00 00
 0.635137 1  A3              Rx   d 8 F3 C5 35 1F 10 00 00 00
 0.648109 1  AA              Rx   d 8 07 0C 09 00 00 F0 C0 00
 0.650985 1  B1              Rx   d 8 A5 00 5B FF 00 00 00 00
 0.650985 1  800x            Rx   d 8 00 00 00 00 00 00 00 00
 0.650985 1  A3              Rx   d 8 F3 C9 35 1F 10 00 00 00
 0.667725 1  A4              Rx   d 8 00 00 00 00 00 01 00 00
 0.667725 1  AE              Rx   d 8 10 00 30 65 24 05 24 20
 0.672572 1  800x            Rx   d 8 00 00 00 00 00 00 00 00
 0.680238 1  A3              Rx   d 8 F3 C5 35 1F 10 00 00 00
 0.682690 1  A4              Rx   d 8 00 00 00 00 00 01 00 00
 0.682690 1  B1              Rx   d 8 A5 00 5B FF 00 00 00 00
 0.682690 1  800x            Rx   d 8 00 00 00 00 00 00 00 00
 0.698465 1  800x            Rx   d 8 00 00 00 00 00 00 00 00
 0.702879 1  A3              Rx   d 8 F3 C5 35 1F 10 00 00 00
 0.708369 1  AA              Rx   d 8 07 0C 09 00 00 F0 C0 00
 0.714173 1  B1              Rx   d 8 A5 00 5B FF 00 00 00 00
 0.714173 1  800x            Rx   d 8 00 00 00 00 00 00 00 00
 0.714173 1  800x            Rx   d 8 00 00 00 00 00 00 00 00
 0.730335 1  A3              Rx   d 8 F3 C5 35 1F 10 00 00 00
 0.730335 1  B1              Rx   d 8 A5 00 5B FF 00 00 00 00
 0.730335 1  800x            Rx   d 8 00 00 00 00 00 00 00 00
 0.730335 1  A3              Rx   d 8 F3 C5 35 1F 10 00 00 00
 0.746384 1  A4              Rx   d 8 00 00 00 00 00 01 00 00
 0.746384 1  800x            Rx   d 8 00 00 00 00 00 00 00 00
 0.746384 1  800x            Rx   d 8 00 00 00 00 00 00 00 00
 0.762287 1  A3              Rx   d 8 F3 C5 35 1F 10 00 00 00
 0.762287 1  A0              Rx   d 8 18 01 0C 01 0B 01 72 01
 0.772656 1  A8              Rx   d 8 00 00 00 00 FA FF FD FF
 0.779076 1  800x            Rx   d 8 00 00 00 00 00 00 00 00
 0.783946 1  800x            Rx   d 8 00 00 00 00 00 00 00 00
 0.785022 1  A3              Rx   d 8 F3 C5 35 1F 10 00 00 00
 0.794052 1  A4              Rx   d 8 00 00 00 00 00 01 00 00
 0.794052 1  B1              Rx   d 8 A5 00 5B FF 00 00 00 00
 0.794052 1  800x            Rx   d 8 00 00 00 00 00 00 00 00
 0.794052 1  800x            Rx   d 8 00 00 00 00 00 00 00 00
 0.810286 1  A3              Rx   d 8 F3 C5 35 1F 10 00 00 00
 0.816005 1  B1              Rx   d 8 A5 00 5B FF 00 00 00 00
 0.818621 1  800x            Rx   d 8 00 00 00 00 00 00 00 00
 0.829839 1  A3              Rx   d 8 F3 C5 35 1F 10 00 00 00
 0.830846 1  A4              Rx   d 8 00 00 00 00 00 01 00 00
 0.830846 1  AC              Rx   d 8 00 00 00 00 2C 13 08 00
 0.842081 1  800x            Rx   d 8 00 00 00 00 00 00 00 00
 0.842081 1  800x            Rx   d 8 00 00 00 00 00 00 00 00
 0.849341 1  A3              Rx   d 8 F3 C5 35 1F 10 00 00 00
 0.849341 1  A4              Rx   d 8 00 00 00 00 00 01 00 00
 0.858181 1  B1              Rx   d 8 A5 00 5B FF 00 00 00 00
 0.858181 1  800x            Rx   d 8 00 00 00 00 00 00 00 00
 0.858181 1  800x            Rx   d 8 00 00 00 00 00 00 00 00
 0.876245 1  AE              Rx   d 8 10 00 30 65 24 05 24 20
 0.876245 1  B1              Rx   d 8 A5 00 5B FF 00 00 00 00
 0.882601 1  800x            Rx   d 8 00 00 00 00 00 00 00 00
 0.891049 1  800x            Rx   d 8 00 00 00 00 00 00 00 00
 0.891049 1  A3              Rx   d 8 F3 C5 35 1F 10 00 00 00
 0.891049 1  AA              Rx   d 8 07 0C 09 08 00 F0 C0 00
 0.901836 1  B1              Rx   d 8 A5 00 5B FF 00 00 00 00
 0.908597 1  800x            Rx   d 8 00 00 00 00 00 00 00 00
 0.915325 1  A3              Rx   d 8 F3 C5 35 1F 10 00 00 00
 0.916335 1  A4              Rx   d 8 00 00 00 00 00 01 00 00
 0.922203 1  800x            Rx   d 8 00 00 00 00 00 00 00 00
 0.922203 1  800x            Rx   d 8 00 00 00 00 00 00 00 00
 0.922203 1  A3              Rx   d 8 F3 C5 35 1F 10 00 00 00
 0.938717 1  A4              Rx   d 8 00 00 00 00 00 01 00 00
 0.943981 1  B1              Rx   d 8 A5 00 5B FF 00 00 00 00
 0.948058 1  800x            Rx   d 8 00 00 00 00 00 00 00 00
 0.953705 1  800x            Rx   d 8 00 00 00 00 00 00 00 00
 0.957251 1  A3              Rx   d 8 F3 C5 35 1F 10 00 00 00
 0.960562 1  AC              Rx   d 8 00 00 00 00 56 13 08 00
 0.968664 1  B1              Rx   d 8 A5 00 5B FF 00 00 00 00
 0.972781 1  800x            Rx   d 8 00 00 00 00 00 00 00 00
 0.972781 1  AE              Rx   d 8 10 00 30 65 24 05 24 20
 0.981630 1  800x            Rx   d 8 00 00 00 00 00 00 00 00
 0.986609 1  B1              Rx   d 8 A5 00 5B FF 00 00 00 00
 0.986609 1  800x            Rx   d 8 00 00 00 00 00 00 00 00
 0.997771 1  A3              Rx   d 8 F3 C5 35 1F 10 00 00 00
 1.003394 1  A4              Rx   d 8 00 00 00 00 00 01 00 00
 1.003394 1  800x            Rx   d 8 00 00 00 00 00 00 00 00
 1.003394 1  800x            Rx   d 8 00 00 00 00 00 00 00 00
 1.016549 1  A3              Rx   d 8 F3 C5 35 1F 10 00 00 00
 1.018563 1  A4              Rx   d 8 00 00 00 00 00 01 00 00
 1.018563 1  B1              Rx   d 8 A5 00 5B FF 00 00 00 00
 1.032368 1  800x            Rx   d 8 00 00 00 00 00 00 00 00
 1.036399 1  800x            Rx   d 8 00 00 00 00 00 00 00 00
 1.040420 1  A3              Rx   d 8 F3 C5 35 1F 10 00 00 00
 1.046449 1  A5              Rx   d 8 CD 0A 00 00 00 00 43 03
 1.048203 1  B1              Rx   d 8 A5 00 5B FF 00 00 00 00
 1.048203 1  800x            Rx   d 8 00 00 00 00 00 00 00 00
 1.048203 1  800x            Rx   d 8 00 00 00 00 00 00 00 00
 1.063902 1  A3              Rx   d 8 F3 C5 35 1F 10 00 00 00
 1.063902 1  B1              Rx   d 8 A5 00 5B FF 00 00 00 00
 1.074387 1  800x            Rx   d 8 00 00 00 00 00 00 00 00
 1.080422 1  AE              Rx   d 8 10 00 30 65 24 05 24 20
 1.080422 1  A3              Rx   d 8 F3 C5 35 1F 10 00 00 00
 1.080422 1  B1              Rx   d 8 A5 00 5B FF 00 00 00 00
 1.092207 1  800x            Rx   d 8 00 00 00 00 00 00 00 00
 1.097486 1  800x            Rx   d 8 00 00 00 00 00 00 00 00
 1.097486 1  A3              Rx   d 8 F3 C5 35 1F 10 00 00 00
 1.107839 1  A5              Rx   d 8 CD 0A 00 00 01 00 42 03
 1.111396 1  B1              Rx   d 8 A5 00 5B FF 00 00 00 00
 1.116446 1  800x            Rx   d 8 00 00 00 00 00 00 00 00
 1.116446 1  800x            Rx   d 8 00 00 00 00 00 00 00 00
 1.134337 1  A3              Rx   d 8 F3 C5 35 1F 10 00 00 00
 1.134337 1  B1              Rx   d 8 A5 00 5B FF 00 00 00 00
 1.138276 1  800x            Rx   d 8 00 00 00 00 00 00 00 00
 1.143370 1  800x            Rx   d 8 00 00 00 00 00 00 00 00
 1.148404 1  A3              Rx   d 8 F3 C5 35 1F 10 00 00 00
 1.148404 1  AD              Rx   d 8 01 00 00 00 00 00 00 00
 1.148404 1  B1              Rx   d 8 A5 00 5B FF 00 00 00 00
 1.159124 1  800x            Rx   d 8 00 00 00 00 00 00 00 00
 1.166186 1  A3              Rx   d 8 F3 C5 35 1F 10 00 00 00
 1.171362 1  A5              Rx   d 8 CD 0A 00 00 00 00 43 03
 1.176356 1  800x            Rx   d 8 00 00 00 00 00 00 00 00
 1.176356 1  AE              Rx   d 8 10 00 30 65 24 05 24 20
 1.186938 1  800x            Rx   d 8 00 00 00 00 00 00 00 00
 1.190525 1  A3              Rx   d 8 F3 C5 35 1F 10 00 00 00
 1.190525 1  B1              Rx   d 8 A5 00 5B FF 00 00 00 00
 1.200569 1  800x            Rx   d 8 00 00 00 00 00 00 00 00
 1.207252 1  800x            Rx   d 8 00 00 00 00 00 00 00 00
 1.211301 1  A3              Rx   d 8 F3 C5 35 1F 10 00 00 00
 1.216052 1  B1              Rx   d 8 A5 00 5B FF 00 00 00 00
 1.218779 1  800x            Rx   d 8 00 00 00 00 00 00 00 00
 1.223006 1  800x            Rx   d 8 00 00 00 00 00 00 00 00
 1.231132 1  A3              Rx   d 8 F3 C5 35 1F 10 00 00 00
 1.231132 1  A6              Rx   d 8 FA FF 00 00 FF FF 00 00
 1.238198 1  B1              Rx   d 8 A5 00 5B FF 00 00 00 00
 1.238198 1  800x            Rx   d 8 00 00 00 00 00 00 00 00
 1.238198 1  A3              Rx   d 8 F3 C5 35 1F 10 00 00 00
 1.254079 1  A4              Rx   d 8 00 00 00 00 00 01 00 00
 1.254079 1  800x            Rx   d 8 00 00 00 00 00 00 00 00
 1.254079 1  800x            Rx   d 8 00 00 00 00 00 00 00 00
 1.270041 1  A3              Rx   d 8 F3 C5 35 1F 10 00 00 00
 1.273532 1  A4              Rx   d 8 00 00 00 00 00 01 00 00
 1.273532 1  B1              Rx   d 8 A5 00 5B FF 00 00 00 00
 1.273532 1  AE              Rx   d 8 10 00 30 65 24 05 24 20
 1.286000 1  800x            Rx   d 8 00 00 00 00 00 00 00 00
 1.286000 1  A3              Rx   d 8 F3 C5 35 1F 10 00 00 00
 1.286000 1  A6              Rx   d 8 01 00 04 00 FF FF 00 00
 1.302016 1  B1              Rx   d 8 A5 00 5B FF 00 00 00 00
 1.308056 1  800x            Rx   d 8 00 00 00 00 00 00 00 00
 1.312083 1  800x            Rx   d 8 00 00 00 00 00 00 00 00
 1.317861 1  A3              Rx   d 8 F3 C5 35 1F 10 00 00 00
 1.319801 1  B1              Rx   d 8 A5 00 5B FF 00 00 00 00
 1.319801 1  800x            Rx   d 8 00 00 00 00 00 00 00 00
 1.319801 1  A3              Rx   d 8 F3 C5 35 1F 10 00 00 00
 1.337173 1  A4              Rx   d 8 00 00 00 00 00 01 00 00
 1.337173 1  B1              Rx   d 8 A5 00 5B FF 00 00 00 00
 1.337173 1  800x            Rx   d 8 00 00 00 00 00 00 00 00
 1.349528 1  800x            Rx   d 8 00 00 00 00 00 00 00 00
 1.349528 1  A3              Rx   d 8 F3 C5 35 1F 10 00 00 00
 1.349528 1  A6              Rx   d 8 02 00 04 00 FC FF 00 00
 1.365509 1  B1              Rx   d 8 A5 00 5B FF 00 00 00 00
 1.370859 1  800x            Rx   d 8 00 00 00 00 00 00 00 00
 1.376483 1  800x            Rx   d 8 00 00 00 00 00 00 00 00
 1.381577 1  A3              Rx   d 8 F3 C5 35 1F 10 00 00 00
 1.383600 1  AE              Rx   d 8 10 00 30 65 24 05 24 20
 1.391101 1  800x            Rx   d 8 00 00 00 00 00 00 00 00
 1.395470 1  800x            Rx   d 8 00 00 00 00 00 00 00 00
 1.403053 1  A3              Rx   d 8 F3 C5 35 1F 10 00 00 00
 1.407699 1  AD              Rx   d 8 00 00 00 00 00 00 00 00
 1.410409 1  B1              Rx   d 8 A5 00 5B FF 00 00 00 00
 1.417549 1  800x            Rx   d 8 00 00 00 00 00 00 00 00
 1.419565 1  A3              Rx   d 8 F3 C5 35 1F 10 00 00 00
 1.424044 1  A6              Rx   d 8 02 00 04 00 07 00 00 00
 1.429806 1  800x            Rx   d 8 00 00 00 00 00 00 00 00
 1.429806 1  800x            Rx   d 8 00 00 00 00 00 00 00 00
 1.429806 1  A3              Rx   d 8 F3 C5 35 1F 10 00 00 00
 1.429806 1  A4              Rx   d 8 00 00 00 00 00 01 00 00
 1.449266 1  B1              Rx   d 8 A5 00 5B FF 00 00 00 00
 1.449266 1  800x            Rx   d 8 00 00 00 00 00 00 00 00
 1.458120 1  800x            Rx   d 8 00 00 00 00 00 00 00 00
 1.460791 1  A3              Rx   d 8 F3 C5 35 1F 10 00 00 00
 1.465940 1  B1              Rx   d 8 A5 00 5B FF 00 00 00 00
 1.472367 1  800x            Rx   d 8 00 00 00 00 00 00 00 00
 1.476475 1  800x            Rx   d 8 00 00 00 00 00 00 00 00
 1.476475 1  A0              Rx   d 8 18 01 0C 01 0B 01 72 01
 1.476475 1  A4              Rx   d 8 00 00 00 00 00 01 00 00
 1.492150 1  B1              Rx   d 8 A5 00 5B FF 00 00 00 00
 1.496324 1  800x            Rx   d 8 00 00 00 00 00 00 00 00
 1.499215 1  A3              Rx   d 8 F3 C5 35 1F 10 00 00 00
 1.499215 1  A4              Rx   d 8 00 00 00 00 00 01 00 00
 1.512004 1  800x            Rx   d 8 00 00 00 00 00 00 00 00
 1.516659 1  800x            Rx   d 8 00 00 00 00 00 00 00 00
 1.518239 1  A3              Rx   d 8 F3 C5 35 1F 10 00 00 00
 1.523658 1  A4              Rx   d 8 00 00 00 00 00 01 00 00
 1.527862 1  B1              Rx   d 8 A5 00 5B FF 00 00 00 00
 1.532817 1  800x            Rx   d 8 00 00 00 00 00 00 00 00
 1.539430 1  800x            Rx   d 8 00 00 00 00 00 00 00 00
 1.543123 1  A3              Rx   d 8 F3 C5 35 1F 10 00 00 00
 1.549680 1  A8              Rx   d 8 00 00 00 00 0B 00 0D 00
 1.549680 1  B1              Rx   d 8 A5 00 5B FF 00 00 00 00
 1.555524 1  800x            Rx   d 8 00 00 00 00 00 00 00 00
 1.564117 1  800x            Rx   d 8 00 00 00 00 00 00 00 00
 1.568262 1  A3              Rx   d 8 F3 C5 35 1F 10 00 00 00
 1.574108 1  B1              Rx   d 8 A5 00 5B FF 00 00 00 00
 1.574108 1  800x            Rx   d 8 00 00 00 00 00 00 00 00
 1.574108 1  A0              Rx   d 8 18 01 0C 01 0B 01 72 01
 1.588874 1  AE              Rx   d 8 10 00 30 65 24 05 24 20
 1.590406 1  800x            Rx   d 8 00 00 00 00 00 00 00 00
 1.590406 1  800x            Rx   d 8 00 00 00 00 00 00 00 00
 1.603137 1  A3              Rx   d 8 F3 C5 35 1F 10 00 00 00
 1.605112 1  A4              Rx   d 8 00 00 00 00 00 01 00 00
 1.613075 1  AB              Rx   d 8 00 00 00 00 00 08 00 00
 1.618915 1  800x            Rx   d 8 00 00 00 00 00 00 00 00
 1.618915 1  800x            Rx   d 8 00 00 00 00 00 00 00 00
 1.627212 1  A3              Rx   d 8 F3 C5 35 1F 10 00 00 00
 1.632761 1  A4              Rx   d 8 00 00 00 00 00 01 00 00
 1.636604 1  B1              Rx   d 8 A5 00 5B FF 00 00 00 00
 1.636604 1  800x            Rx   d 8 00 00 00 00 00 00 00 00
 1.648941 1  800x            Rx   d 8 00 00 00 00 00 00 00 00
 1.650700 1  A3              Rx   d 8 F3 C5 35 1F 10 00 00 00
 1.656114 1  B1              Rx   d 8 A5 00 5B FF 00 00 00 00
 1.661754 1  800x            Rx   d 8 00 00 00 00 00 00 00 00
 1.666350 1  A3              Rx   d 8 F3 C5 35 1F 12 00 00 00
 1.670687 1  A4              Rx   d 8 00 00 00 00 00 01 00 00
 1.676216 1  AB              Rx   d 8 00 00 00 00 00 08 00 00
 1.682248 1  800x            Rx   d 8 00 00 00 00 00 00 00 00
 1.687541 1  800x            Rx   d 8 00 00 00 00 00 00 00 00
 1.691559 1  A2              Rx   d 8 10 01 10 01 65 05 00 00
 1.695575 1  A3              Rx   d 8 F3 C5 35 1F 10 00 00 00
 1.700383 1  B1              Rx   d 8 A5 00 5B FF 00 00 00 00
 1.705637 1  800x            Rx   d 8 00 00 00 00 00 00 00 00
 1.707644 1  800x            Rx   d 8 00 00 00 00 00 00 00 00
 1.715070 1  A3              Rx   d 8 F3 C5 35 1F 10 00 00 00
 1.715070 1  B1              Rx   d 8 A5 00 5B FF 00 00 00 00
 1.715070 1  800x            Rx   d 8 00 00 00 00 00 00 00 00
 1.731406 1  800x            Rx   d 8 00 00 00 00 00 00 00 00
 1.731406 1  A3              Rx   d 8 F3 C5 35 1F 10 00 00 00
 1.731406 1  AA              Rx   d 8 07 0C 09 00 00 F0 C0 00
 1.745022 1  B1              Rx   d 8 A5 00 5B FF 00 00 00 00
 1.749055 1  800x            Rx   d 8 00 00 00 00 00 00 00 00
 1.755095 1  A3              Rx   d 8 F3 C5 35 1F 10 00 00 00
 1.759120 1  A4              Rx   d 8 00 00 00 00 00 01 00 00
 1.760877 1  800x            Rx   d 8 00 00 00 00 00 00 00 00
 1.760877 1  800x            Rx   d 8 00 00 00 00 00 00 00 00
 1.760877 1  A3              Rx   d 8 F3 C5 35 1F 10 00 00 00
 1.777003 1  A4              Rx   d 8 00 00 00 00 00 01 00 00
 1.781075 1  B1              Rx   d 8 A5 00 5B FF 00 00 00 00
 1.787277 1  800x            Rx   d 8 00 00 00 00 00 00 00 00
 1.792667 1  AE              Rx   d 8 10 00 30 65 24 05 24 20
 1.799248 1  800x            Rx   d 8 00 00 00 00 00 00 00 00
 1.803252 1  AC              Rx   d 8 00 00 00 00 6E 14 08 00
 1.807257 1  B1              Rx   d 8 A5 00 5B FF 00 00 00 00
 1.813294 1  800x            Rx   d 8 00 00 00 00 00 00 00 00
 1.818146 1  800x            Rx   d 8 00 00 00 00 00 00 00 00
 1.822101 1  A3              Rx   d 8 F3 C5 35 1F 10 00 00 00
 1.824533 1  B1              Rx   d 8 A5 00 5B FF 00 00 00 00
 1.833614 1  800x            Rx   d 8 00 00 00 00 00 00 00 00
 1.834269 1  A3              Rx   d 8 F3 C5 35 1F 10 00 00 00
 1.841162 1  A4              Rx   d 8 00 00 00 00 00 01 00 00
 1.843843 1  800x            Rx   d 8 00 00 00 00 00 00 00 00
 1.843843 1  800x            Rx   d 8 00 00 00 00 00 00 00 00
 1.857165 1  A3              Rx   d 8 F3 C5 35 1F 10 00 00 00
 1.857165 1  A4              Rx   d 8 00 00 00 00 00 01 00 00
 1.857165 1  AD              Rx   d 8 10 00 00 00 00 00 00 00
 1.872238 1  800x            Rx   d 8 00 00 00 00 00 00 00 00
 1.876872 1  800x            Rx   d 8 00 00 00 00 00 00 00 00
 1.881025 1  A3              Rx   d 8 F3 C5 35 1F 10 00 00 00
 1.881881 1  A5              Rx   d 8 A1 0A 00 00 00 00 5B 03
 1.889088 1  B1              Rx   d 8 A5 00 5B FF 00 00 00 00
 1.889088 1  AE              Rx   d 8 10 00 30 65 24 05 24 20
 1.889088 1  800x            Rx   d 8 00 00 00 00 00 00 00 00
 1.905440 1  A3              Rx   d 8 F3 C5 35 1F 10 00 00 00
 1.910296 1  B1              Rx   d 8 A5 00 5B FF 00 00 00 00
 1.914147 1  800x            Rx   d 8 00 00 00 00 00 00 00 00
 1.920134 1  800x            Rx   d 8 00 00 00 00 00 00 00 00
 1.925117 1  A3              Rx   d 8 F3 C5 35 1F 10 00 00 00
 1.930143 1  AB              Rx   d 8 00 00 00 00 00 08 00 00
 1.934105 1  B1              Rx   d 8 A5 00 5B FF 00 00 00 00
 1.938947 1  800x            Rx   d 8 00 00 00 00 00 00 00 00
 1.943743 1  A3              Rx   d 8 F3 C5 35 1F 10 00 00 00
 1.948888 1  A4              Rx   d 8 00 00 00 00 00 01 00 00
 1.952213 1  800x            Rx   d 8 00 00 00 00 00 00 00 00
 1.956883 1  800x            Rx   d 8 00 00 00 00 00 00 00 00
 1.956883 1  A3              Rx   d 8 F3 C5 35 1F 10 00 00 00
 1.970278 1  A4              Rx   d 8 00 00 00 00 00 01 00 00
 1.972290 1  B1              Rx   d 8 A5 00 5B FF 00 00 00 00
 1.975187 1  800x            Rx   d 8 00 00 00 00 00 00 00 00
 1.975187 1  800x            Rx   d 8 00 00 00 00 00 00 00 00
 1.986077 1  A3              Rx   d 8 F3 C5 35 1F 10 00 00 00
 1.993184 1  AC              Rx   d 8 00 00 00 00 AD 14 08 00
 1.997444 1  AE              Rx   d 8 10 00 30 65 24 05 24 20
 2.000769 1  800x            Rx   d 8 00 00 00 00 00 00 00 00
 2.000769 1  800x            Rx   d 8 00 00 00 00 00 00 00 00
 2.000769 1  A3              Rx   d 8 F3 C5 35 1F 10 00 00 00
 2.016061 1  B1              Rx   d 8 A5 00 5B FF 00 00 00 00
 2.016061 1  800x            Rx   d 8 00 00 00 00 00 00 00 00
 2.027165 1  A3              Rx   d 8 F3 C5 35 1F 10 00 00 00
 2.032264 1  A4              Rx   d 8 00 00 00 00 00 01 00 00
 2.035241 1  800x            Rx   d 8 00 00 00 00 00 00 00 00
 2.041204 1  800x            Rx   d 8 00 00 00 00 00 00 00 00
 2.046123 1  A3              Rx   d 8 F3 C5 35 1F 10 00 00 00
 2.050891 1  A4              Rx   d 8 00 00 00 00 00 01 00 00
 2.056457 1  B1              Rx   d 8 A5 00 5B FF 00 00 00 00
 2.060360 1  800x            Rx   d 8 00 00 00 00 00 00 00 00
 2.065351 1  800x            Rx   d 8 00 00 00 00 00 00 00 00
 2.070268 1  A3              Rx   d 8 F3 C5 35 1F 10 00 00 00
 2.075165 1  A5              Rx   d 8 85 0A 00 00 00 00 6D 03
 2.080291 1  B1              Rx   d 8 A5 00 5B FF 00 00 00 00
 2.084049 1  800x            Rx   d 8 00 00 00 00 00 00 00 00
 2.084049 1  800x            Rx   d 8 00 00 00 00 00 00 00 00
 2.094100 1  A0              Rx   d 8 18 01 0C 01 0B 01 72 01
 2.094100 1  B1              Rx   d 8 A5 00 5B FF 00 00 00 00
 2.099831 1  800x            Rx   d 8 00 00 00 00 00 00 00 00
 2.099831 1  A3              Rx   d 8 F3 C5 35 1F 10 00 00 00
 2.110090 1  A4              Rx   d 8 00 00 00 00 00 01 00 00
 2.110090 1  B1              Rx   d 8 A5 00 5B FF 00 00 00 00
 2.110090 1  800x            Rx   d 8 00 00 00 00 00 00 00 00
 2.125952 1  800x            Rx   d 8 00 00 00 00 00 00 00 00
 2.125952 1  A3              Rx   d 8 F3 C5 35 1F 10 00 00 00
 2.125952 1  A5              Rx   d 8 74 0A 00 00 00 00 78 03
 2.142109 1  B1              Rx   d 8 A5 00 5B FF 00 00 00 00
 2.142109 1  800x            Rx   d 8 00 00 00 00 00 00 00 00
 2.152393 1  800x            Rx   d 8 00 00 00 00 00 00 00 00
 2.158170 1  A3              Rx   d 8 F3 C5 35 1F 0F 00 00 00
 2.158170 1  B1              Rx   d 8 A5 00 5B FF 00 00 00 00
 2.168418 1  800x            Rx   d 8 00 00 00 00 00 00 00 00
 2.172440 1  800x            Rx   d 8 00 00 00 00 00 00 00 00
 2.177206 1  A3              Rx   d 8 F3 C5 35 1F 10 00 00 00
 2.181223 1  AD              Rx   d 8 22 00 00 00 00 00 00 00
 2.187248 1  B1              Rx   d 8 A5 00 5B FF 00 00 00 00
 2.191303 1  800x            Rx   d 8 00 00 00 00 00 00 00 00
 2.196207 1  A0              Rx   d 8 18 01 0C 01 0B 01 72 01
 2.200527 1  A6              Rx   d 8 FF FF 00 00 06 00 00 00
 2.206114 1  800x            Rx   d 8 00 00 00 00 00 00 00 00
 2.206114 1  800x            Rx   d 8 00 00 00 00 00 00 00 00
 2.206114 1  A3              Rx   d 8 F3 C5 35 1F 10 00 00 00
 2.216916 1  A4              Rx   d 8 00 00 00 00 00 01 00 00
 2.221947 1  B1              Rx   d 8 A5 00 5B FF 00 00 00 00
 2.221947 1  800x            Rx   d 8 00 00 00 00 00 00 00 00
 2.221947 1  800x            Rx   d 8 00 00 00 00 00 00 00 00
 2.237993 1  A3              Rx   d 8 F3 C5 35 1F 10 00 00 00
 2.237993 1  B1              Rx   d 8 A5 00 5B FF 00 00 00 00
 2.237993 1  800x            Rx   d 8 00 00 00 00 00 00 00 00
 2.253968 1  800x            Rx   d 8 00 00 00 00 00 00 00 00
 2.255989 1  A3              Rx   d 8 F3 C5 35 1F 10 00 00 00
 2.255989 1  A6              Rx   d 8 0A 00 04 00 FF FF 00 00
 2.255989 1  B1              Rx   d 8 A5 00 5B FF 00 00 00 00
 2.270930 1  800x            Rx   d 8 00 00 00 00 00 00 00 00
 2.275436 1  A3              Rx   d 8 F3 C9 35 1F 10 00 00 00
 2.275436 1  A4              Rx   d 8 00 00 00 00 00 01 00 00
 2.287905 1  800x            Rx   d 8 00 00 00 00 00 00 00 00
 2.294300 1  800x            Rx   d 8 00 00 00 00 00 00 00 00
 2.299182 1  A0              Rx   d 8 18 01 0C 01 0B 01 73 01
 2.301722 1  AE              Rx   d 8 10 00 30 65 24 05 24 20
 2.308220 1  B1              Rx   d 8 A5 00 5B FF 00 00 00 00
 2.313112 1  800x            Rx   d 8 00 00 00 00 00 00 00 00
 2.317151 1  800x            Rx   d 8 00 00 00 00 00 00 00 00
 2.317151 1  A3              Rx   d 8 F3 C5 35 1F 10 00 00 00
 2.317151 1  A8              Rx   d 8 00 00 FF FF 05 00 00 00
 2.317151 1  B1              Rx   d 8 A5 00 5B FF 00 00 00 00
 2.336946 1  800x            Rx   d 8 00 00 00 00 00 00 00 00
 2.336946 1  800x            Rx   d 8 00 00 00 00 00 00 00 00
 2.336946 1  A3              Rx   d 8 F3 C5 35 1F 10 00 00 00
 2.349813 1  B1              Rx   d 8 A5 00 5B FF 00 00 00 00
 2.349813 1  800x            Rx   d 8 00 00 00 00 00 00 00 00
 2.349813 1  A3              Rx   d 8 F3 C5 35 1F 10 00 00 00
 2.365254 1  A4              Rx   d 8 00 00 00 00 00 01 00 00
 2.365254 1  800x            Rx   d 8 00 00 00 00 00 00 00 00
 2.375449 1  800x            Rx   d 8 00 00 00 00 00 00 00 00
 2.380911 1  A3              Rx   d 8 F3 C5 35 1F 10 00 00 00
 2.380911 1  A4              Rx   d 8 00 00 00 00 00 01 00 00
 2.380911 1  AB              Rx   d 8 00 00 00 00 00 08 00 00
 2.395804 1  800x            Rx   d 8 00 00 00 00 00 00 00 00
 2.400751 1  A0              Rx   d 8 18 01 0C 01 0B 01 73 01
 2.402763 1  AE              Rx   d 8 10 00 30 65 24 05 24 20
 2.408240 1  800x            Rx   d 8 00 00 00 00 00 00 00 00
 2.412624 1  B1              Rx   d 8 A5 00 5B FF 00 00 00 00
 2.420616 1  800x            Rx   d 8 00 00 00 00 00 00 00 00
 2.424023 1  800x            Rx   d 8 00 00 00 00 00 00 00 00
 2.430491 1  A3              Rx   d 8 F3 C5 35 1F 10 00 00 00
 2.434507 1  B1              Rx   d 8 A5 00 5B FF 00 00 00 00
 2.440528 1  800x            Rx   d 8 00 00 00 00 00 00 00 00
 2.444285 1  A3              Rx   d 8 F3 C5 35 1F 10 00 00 00
 2.448300 1  A4              Rx   d 8 00 00 00 00 00 01 00 00
 2.454322 1  AB              Rx   d 8 00 00 00 00 00 08 00 00
 2.458336 1  800x            Rx   d 8 00 00 00 00 00 00 00 00
 2.460129 1  800x            Rx   d 8 00 00 00 00 00 00 00 00
 2.467203 1  A3              Rx   d 8 F3 C5 35 1F 10 00 00 00
 2.467203 1  A4              Rx   d 8 00 00 00 00 00 01 00 00
 2.477010 1  B1              Rx   d 8 A5 00 5B FF 00 00 00 00
 2.483048 1  800x            Rx   d 8 00 00 00 00 00 00 00 00
 2.485389 1  800x            Rx   d 8 00 00 00 00 00 00 00 00
 2.491339 1  A3              Rx   d 8 F3 C5 35 1F 10 00 00 00
 2.491339 1  B1              Rx   d 8 A5 00 5B FF 00 00 00 00
 2.491339 1  800x            Rx   d 8 00 00 00 00 00 00 00 00
 2.507407 1  AE              Rx   d 8 10 00 30 65 24 05 24 20
 2.509419 1  800x            Rx   d 8 00 00 00 00 00 00 00 00
 2.509419 1  AA              Rx   d 8 07 0C 09 00 00 F0 C0 00
 2.509419 1  B1              Rx   d 8 A5 00 5B FF 00 00 00 00
 2.523335 1  800x            Rx   d 8 00 00 00 00 00 00 00 00
 2.528458 1  A3              Rx   d 8 F3 C5 35 1F 10 00 00 00
 2.536158 1  A4              Rx   d 8 00 00 00 00 00 01 00 00
 2.539186 1  800x            Rx   d 8 00 00 00 00 00 00 00 00
 2.546465 1  800x            Rx   d 8 00 00 00 00 00 00 00 00
 2.551331 1  A3              Rx   d 8 F3 C5 35 1F 10 00 00 00
 2.555088 1  A4              Rx   d 8 00 00 00 00 00 01 00 00
 2.561126 1  B1              Rx   d 8 A5 00 5B FF 00 00 00 00
 2.566112 1  800x            Rx   d 8 00 00 00 00 00 00 00 00
 2.571091 1  800x            Rx   d 8 00 00 00 00 00 00 00 00
 2.576154 1  A3              Rx   d 8 F3 C5 35 1F 10 00 00 00
 2.580576 1  AB              Rx   d 8 00 00 00 00 00 08 00 00
 2.584377 1  B1              Rx   d 8 A5 00 5B FF 00 00 00 00
 2.590040 1  800x            Rx   d 8 00 00 00 00 00 00 00 00
 2.590552 1  800x            Rx   d 8 00 00 00 00 00 00 00 00
 2.600026 1  A3              Rx   d 8 F3 C5 35 1F 10 00 00 00
 2.602042 1  B1              Rx   d 8 A5 00 5B FF 00 00 00 00
 2.602042 1  AE              Rx   d 8 10 00 30 65 24 05 24 20
 2.602042 1  800x            Rx   d 8 00 00 00 00 00 00 00 00
 2.619548 1  A3              Rx   d 8 F3 C5 35 1F 10 00 00 00
 2.621088 1  800x            Rx   d 8 00 00 00 00 00 00 00 00
 2.621088 1  800x            Rx   d 8 00 00 00 00 00 00 00 00
 2.634035 1  A3              Rx   d 8 F3 C5 35 1F 10 00 00 00
 2.638019 1  A4              Rx   d 8 00 00 00 00 00 01 00 00
 2.638019 1  AD              Rx   d 8 C0 00 00 00 00 00 00 00
 2.638019 1  800x            Rx   d 8 00 00 00 00 00 00 00 00
 2.649985 1  800x            Rx   d 8 00 00 00 00 00 00 00 00
 2.649985 1  A3              Rx   d 8 F3 C5 35 1F 10 00 00 00
 2.649985 1  A5              Rx   d 8 29 09 F3 FF 00 00 DF 01
 2.668506 1  B1              Rx   d 8 A5 00 5B FF 00 00 00 00
 2.673138 1  800x            Rx   d 8 00 00 00 00 00 00 00 00
 2.678102 1  800x            Rx   d 8 00 00 00 00 00 00 00 00
 2.683129 1  A3              Rx   d 8 F3 C5 35 1F 10 00 00 00
 2.687109 1  B1              Rx   d 8 A5 00 5B FF 00 00 00 00
 2.692127 1  800x            Rx   d 8 00 00 00 00 00 00 00 00
 2.697133 1  A3              Rx   d 8 F3 C5 35 1F 10 00 00 00
 2.702109 1  A4              Rx   d 8 00 00 00 00 00 01 00 00
 2.706121 1  AD              Rx   d 8 6A 00 00 00 00 00 00 00
 2.708109 1  AE              Rx   d 8 10 00 30 65 24 05 24 20
 2.713078 1  800x            Rx   d 8 00 00 00 00 00 00 00 00
 2.717046 1  A3              Rx   d 8 F3 C5 35 1F 10 00 00 00
 2.717046 1  A4              Rx   d 8 00 00 00 00 00 01 00 00
 2.729124 1  B1              Rx   d 8 A5 00 5B FF 00 00 00 00
 2.733297 1  800x            Rx   d 8 00 00 00 00 00 00 00 00
 2.733297 1  800x            Rx   d 8 00 00 00 00 00 00 00 00
 2.745066 1  A3              Rx   d 8 F3 C5 35 1F 10 00 00 00
 2.745066 1  B1              Rx   d 8 A5 00 5B FF 00 00 00 00
 2.745066 1  800x            Rx   d 8 00 00 00 00 00 00 00 00
 2.745066 1  800x            Rx   d 8 00 00 00 00 00 00 00 00
 2.761022 1  A3              Rx   d 8 F3 C5 35 1F 10 00 00 00
 2.761022 1  AB              Rx   d 8 00 00 00 00 00 08 00 00
 2.761022 1  B1              Rx   d 8 A5 00 5B FF 00 00 00 00
 2.777839 1  800x            Rx   d 8 00 00 00 00 00 00 00 00
 2.777839 1  A3              Rx   d 8 F3 C5 35 1F 10 00 00 00
 2.777839 1  A4              Rx   d 8 00 00 00 00 00 01 00 00
 2.794325 1  800x            Rx   d 8 00 00 00 00 00 00 00 00
 2.799238 1  800x            Rx   d 8 00 00 00 00 00 00 00 00
 2.804293 1  A3              Rx   d 8 F3 C5 35 1F 10 00 00 00
 2.808312 1  A0              Rx   d 8 18 01 0D 01 0B 01 72 01
 2.812247 1  B1              Rx   d 8 A5 00 5B FF 00 00 00 00
 2.818231 1  800x            Rx   d 8 00 00 00 00 00 00 00 00
 2.818231 1  800x            Rx   d 8 00 00 00 00 00 00 00 00
 2.826281 1  A3              Rx   d 8 F3 C5 35 1F 10 00 00 00
 2.826281 1  AC              Rx   d 8 00 00 00 00 C5 15 08 00
 2.835300 1  B1              Rx   d 8 A5 00 5B FF 00 00 00 00
 2.840346 1  800x            Rx   d 8 00 00 00 00 00 00 00 00
 2.840346 1  800x            Rx   d 8 00 00 00 00 00 00 00 00
 2.852149 1  A3              Rx   d 8 F3 C5 35 1F 10 00 00 00
 2.856550 1  B1              Rx   d 8 A5 00 5B FF 00 00 00 00
 2.861470 1  800x            Rx   d 8 00 00 00 00 00 00 00 00
 2.867143 1  A3              Rx   d 8 F3 C5 35 1F 10 00 00 00
 2.871121 1  A4              Rx   d 8 00 00 00 00 00 01 00 00
 2.876118 1  800x            Rx   d 8 00 00 00 00 00 00 00 00
 2.881108 1  800x            Rx   d 8 00 00 00 00 00 00 00 00
 2.885121 1  A3              Rx   d 8 F3 C5 35 1F 10 00 00 00
 2.890141 1  A4              Rx   d 8 00 00 00 00 00 01 00 00
 2.896162 1  B1              Rx   d 8 A5 00 5B FF 00 00 00 00
 2.901392 1  800x            Rx   d 8 00 00 00 00 00 00 00 00
 2.906215 1  800x            Rx   d 8 00 00 00 00 00 00 00 00
 2.911718 1  A0              Rx   d 8 18 01 0D 01 0B 01 72 01
 2.915308 1  A5              Rx   d 8 F7 06 FB FF 00 00 37 04
 2.920376 1  B1              Rx   d 8 A5 00 5B FF 00 00 00 00
 2.923872 1  800x            Rx   d 8 00 00 00 00 00 00 00 00
 2.930191 1  800x            Rx   d 8 00 00 00 00 00 00 00 00
 2.935008 1  A3              Rx   d 8 F3 C5 35 1F 10 00 00 00
 2.939402 1  B1              Rx   d 8 A5 00 5B FF 00 00 00 00
 2.944348 1  800x            Rx   d 8 00 00 00 00 00 00 00 00
 2.944348 1  A3              Rx   d 8 F3 C5 35 1F 10 00 00 00
 2.954186 1  A4              Rx   d 8 00 00 00 00 00 01 00 00
 2.958206 1  B1              Rx   d 8 A5 00 5B FF 00 00 00 00
 2.964231 1  800x            Rx   d 8 00 00 00 00 00 00 00 00
 2.968000 1  800x            Rx   d 8 00 00 00 00 00 00 00 00
 2.968000 1  A3              Rx   d 8 F3 C5 35 1F 10 00 00 00
 2.976017 1  A5              Rx   d 8 08 06 FB FF 00 00 B3 00
 2.981307 1  B1              Rx   d 8 A5 00 5B FF 00 00 00 00
 2.988800 1  800x            Rx   d 8 00 00 00 00 00 00 00 00
 2.988800 1  800x            Rx   d 8 00 00 00 00 00 00 00 00
 2.988800 1  A3              Rx   d 8 F3 C5 35 1F 10 00 00 00
 3.001274 1  B1              Rx   d 8 A5 00 5B FF 00 00 00 00
 3.001274 1  800x            Rx   d 8 00 00 00 00 00 00 00 00
 3.012218 1  A0              Rx   d 8 18 01 0D 01 0B 01 72 01
 3.016809 1  AE              Rx   d 8 10 00 30 65 24 05 24 20
 3.017931 1  AD              Rx   d 8 AE 00 00 00 00 00 00 00
 3.023049 1  B1              Rx   d 8 A5 00 5B FF 00 00 00 00
 3.031088 1  800x            Rx   d 8 00 00 00 00 00 00 00 00
 3.034068 1  A3              Rx   d 8 F3 C5 35 1F 10 00 00 00
 3.034068 1  A4              Rx   d 8 00 00 00 00 00 01 00 00
 3.042111 1  800x            Rx   d 8 00 00 00 00 00 00 00 00
 3.047324 1  800x            Rx   d 8 00 00 00 00 00 00 00 00
 3.056186 1  A3              Rx   d 8 F3 C5 35 1F 10 00 00 00
 3.060214 1  A4              Rx   d 8 00 00 00 00 00 01 00 00
 3.065456 1  B1              Rx   d 8 A5 00 5B FF 00 00 00 00
 3.069474 1  800x            Rx   d 8 00 00 00 00 00 00 00 00
 3.075496 1  800x            Rx   d 8 00 00 00 00 00 00 00 00
 3.079016 1  A3              Rx   d 8 F3 C5 35 1F 10 00 00 00
 3.085139 1  AD              Rx   d 8 04 01 00 00 00 00 00 00
 3.089122 1  B1              Rx   d 8 A5 00 5B FF 00 00 00 00
 3.095016 1  800x            Rx   d 8 00 00 00 00 00 00 00 00
 3.099044 1  800x            Rx   d 8 00 00 00 00 00 00 00 00
 3.104081 1  A3              Rx   d 8 F3 C5 35 1F 10 00 00 00
 3.106020 1  B1              Rx   d 8 A5 00 5B FF 00 00 00 00
 3.111039 1  800x            Rx   d 8 00 00 00 00 00 00 00 00
 3.111039 1  AE              Rx   d 8 10 00 30 65 24 05 24 20
 3.111039 1  A3              Rx   d 8 F3 C5 35 1F 10 00 00 00
 3.128075 1  800x            Rx   d 8 00 00 00 00 00 00 00 00
 3.134032 1  800x            Rx   d 8 00 00 00 00 00 00 00 00
 3.137993 1  A3              Rx   d 8 F3 C5 35 1F 10 00 00 00
 3.142996 1  A4              Rx   d 8 00 00 00 00 00 01 00 00
 3.147996 1  B1              Rx   d 8 A5 00 5B FF 00 00 00 00
 3.152992 1  800x            Rx   d 8 00 00 00 00 00 00 00 00
 3.158099 1  800x            Rx   d 8 00 00 00 00 00 00 00 00
 3.163347 1  A3              Rx   d 8 F3 C5 35 1F 10 00 00 00
 3.164412 1  A6              Rx   d 8 FF FF 01 00 00 00 00 00
 3.172241 1  B1              Rx   d 8 A5 00 5B FF 00 00 00 00
 3.176464 1  800x            Rx   d 8 00 00 00 00 00 00 00 00
 3.182035 1  800x            Rx   d 8 00 00 00 00 00 00 00 00
 3.187091 1  A3              Rx   d 8 F3 C5 35 1F 10 00 00 00
 3.191636 1  B1              Rx   d 8 A5 00 5B FF 00 00 00 00
 3.197101 1  800x            Rx   d 8 00 00 00 00 00 00 00 00
 3.200858 1  A3              Rx   d 8 F3 C5 35 1F 10 00 00 00
 3.206124 1  A4              Rx   d 8 00 00 00 00 00 01 00 00
 3.207190 1  B1              Rx   d 8 A5 00 5B FF 00 00 00 00
 3.216576 1  800x            Rx   d 8 00 00 00 00 00 00 00 00
 3.221296 1  AE              Rx   d 8 10 00 30 65 24 05 24 20
 3.223184 1  800x            Rx   d 8 00 00 00 00 00 00 00 00
 3.223184 1  A6              Rx   d 8 02 00 01 00 07 00 00 00
 3.235168 1  B1              Rx   d 8 A5 00 5B FF 00 00 00 00
 3.240409 1  800x            Rx   d 8 00 00 00 00 00 00 00 00
 3.245139 1  800x            Rx   d 8 00 00 00 00 00 00 00 00
 3.249040 1  A3              Rx   d 8 F3 C5 35 1F 10 00 00 00
 3.255200 1  B1              Rx   d 8 A5 00 5B FF 00 00 00 00
 3.255200 1  800x            Rx   d 8 00 00 00 00 00 00 00 00
 3.255200 1  800x            Rx   d 8 00 00 00 00 00 00 00 00
 3.255200 1  A3              Rx   d 8 F3 C5 35 1F 10 00 00 00
 3.270513 1  B1              Rx   d 8 A5 00 5B FF 00 00 00 00
 3.276005 1  800x            Rx   d 8 00 00 00 00 00 00 00 00
 3.276005 1  A3              Rx   d 8 F3 C5 35 1F 10 00 00 00
 3.286415 1  A4              Rx   d 8 00 00 00 00 00 01 00 00
 3.286415 1  A8              Rx   d 8 00 00 FA FF FD FF FB FF
 3.286415 1  800x            Rx   d 8 00 00 00 00 00 00 00 00
 3.302446 1  800x            Rx   d 8 00 00 00 00 00 00 00 00
 3.308194 1  A3              Rx   d 8 F3 C5 35 1F 10 00 00 00
 3.312238 1  A4              Rx   d 8 00 00 00 00 00 01 00 00
 3.318113 1  B1              Rx   d 8 A5 00 5B FF 00 00 00 00
 3.322104 1  AE              Rx   d 8 10 00 30 65 24 05 24 20
 3.328111 1  800x            Rx   d 8 00 00 00 00 00 00 00 00
 3.332103 1  A3              Rx   d 8 F3 C5 35 1F 10 00 00 00
 3.334663 1  AD              Rx   d 8 08 01 00 00 00 00 00 00
 3.341117 1  B1              Rx   d 8 A5 00 5B FF 00 00 00 00
 3.347036 1  800x            Rx   d 8 00 00 00 00 00 00 00 00
 3.352277 1  800x            Rx   d 8 00 00 00 00 00 00 00 00
 3.356042 1  A4              Rx   d 8 00 00 00 00 00 01 00 00
 3.361011 1  B1              Rx   d 8 A5 00 5B FF 00 00 00 00
 3.367683 1  800x            Rx   d 8 00 00 00 00 00 00 00 00
 3.367683 1  A3              Rx   d 8 F3 C5 35 1F 10 00 00 00
 3.375957 1  A4              Rx   d 8 00 00 00 00 00 01 00 00
 3.375957 1  800x            Rx   d 8 00 00 00 00 00 00 00 00
 3.385923 1  800x            Rx   d 8 00 00 00 00 00 00 00 00
 3.389953 1  A3              Rx   d 8 F3 C5 35 1F 10 00 00 00
 3.393983 1  A4              Rx   d 8 00 00 00 00 00 01 00 00
 3.398640 1  B1              Rx   d 8 A5 00 5B FF 00 00 00 00
 3.405038 1  800x            Rx   d 8 00 00 00 00 00 00 00 00
 3.410006 1  800x            Rx   d 8 00 00 00 00 00 00 00 00
 3.414957 1  A3              Rx   d 8 F3 C5 35 1F 10 00 00 00
 3.419489 1  A7              Rx   d 8 06 00 00 00 07 00 F5 FF
 3.423509 1  AE              Rx   d 8 10 00 30 65 24 05 24 20
 3.429282 1  800x            Rx   d 8 00 00 00 00 00 00 00 00
 3.429282 1  800x            Rx   d 8 00 00 00 00 00 00 00 00
 3.439302 1  A3              Rx   d 8 F3 C5 35 1F 10 00 00 00
 3.443316 1  B1              Rx   d 8 A5 00 5B FF 00 00 00 00
 3.448631 1  800x            Rx   d 8 00 00 00 00 00 00 00 00
 3.452654 1  A3              Rx   d 8 F3 C5 35 1F 10 00 00 00
 3.456677 1  A4              Rx   d 8 00 00 00 00 00 01 00 00
 3.462962 1  B1              Rx   d 8 A5 00 5B FF 00 00 00 00
 3.468107 1  800x            Rx   d 8 00 00 00 00 00 00 00 00
 3.473080 1  800x            Rx   d 8 00 00 00 00 00 00 00 00
 3.478031 1  A3              Rx   d 8 F3 C5 35 1F 10 00 00 00
 3.479074 1  A7              Rx   d 8 07 00 00 00 01 00 FA FF
 3.488031 1  800x            Rx   d 8 00 00 00 00 00 00 00 00
 3.492515 1  800x            Rx   d 8 00 00 00 00 00 00 00 00
 3.497247 1  A3              Rx   d 8 F3 C5 35 1F 10 00 00 00
 3.502020 1  A4              Rx   d 8 00 00 00 00 00 01 00 00
 3.504001 1  B1              Rx   d 8 A5 00 5B FF 00 00 00 00
 3.512011 1  800x            Rx   d 8 00 00 00 00 00 00 00 00
 3.517001 1  800x            Rx   d 8 00 00 00 00 00 00 00 00
 3.521994 1  A0              Rx   d 8 18 01 0D 01 0B 01 72 01
 3.524818 1  AB              Rx   d 8 00 00 00 00 00 08 00 00
 3.531025 1  B1              Rx   d 8 A5 00 5B FF 00 00 00 00
 3.533021 1  800x            Rx   d 8 00 00 00 00 00 00 00 00
 3.539949 1  A3              Rx   d 8 F3 C5 35 1F 10 00 00 00
 3.539949 1  A7              Rx   d 8 07 00 00 00 FF FF FF FF
 3.539949 1  800x            Rx   d 8 00 00 00 00 00 00 00 00
 3.556037 1  800x            Rx   d 8 00 00 00 00 00 00 00 00
 3.559368 1  A3              Rx   d 8 F3 C5 35 1F 10 00 00 00
 3.564849 1  A4              Rx   d 8 00 00 00 00 00 01 00 00
 3.570090 1  B1              Rx   d 8 A5 00 5B FF 00 00 00 00
 3.575917 1  800x            Rx   d 8 00 00 00 00 00 00 00 00
 3.580360 1  800x            Rx   d 8 00 00 00 00 00 00 00 00
 3.585116 1  A3              Rx   d 8 F3 C5 35 1F 10 00 00 00
 3.588534 1  B1              Rx   d 8 A5 00 5B FF 00 00 00 00
 3.594975 1  800x            Rx   d 8 00 00 00 00 00 00 00 00
 3.600615 1  800x            Rx   d 8 00 00 00 00 00 00 00 00
 3.604081 1  A3              Rx   d 8 F3 C1 35 1F 10 00 00 00
 3.604081 1  A8              Rx   d 8 00 00 00 00 FE FF 0B 00
 3.611528 1  B1              Rx   d 8 A5 00 5B FF 00 00 00 00
 3.619763 1  800x            Rx   d 8 00 00 00 00 00 00 00 00
 3.621781 1  A0              Rx   d 8 18 01 0D 01 0B 01 72 01
 3.621781 1  AE              Rx   d 8 10 00 30 65 24 05 24 20
 3.621781 1  800x            Rx   d 8 00 00 00 00 00 00 00 00
 3.634508 1  800x            Rx   d 8 00 00 00 00 00 00 00 00
 3.634508 1  A3              Rx   d 8 F3 C5 35 1F 10 00 00 00
 3.644079 1  A4              Rx   d 8 00 00 00 00 00 01 00 00
 3.650430 1  B1              Rx   d 8 A5 00 5B FF 00 00 00 00
 3.654932 1  800x            Rx   d 8 00 00 00 00 00 00 00 00
 3.654932 1  800x            Rx   d 8 00 00 00 00 00 00 00 00
 3.666127 1  A3              Rx   d 8 F3 C5 35 1F 10 00 00 00
 3.666127 1  AA              Rx   d 8 07 0C 09 00 00 F0 C0 00
 3.675950 1  B1              Rx   d 8 A5 00 5B FF 00 00 00 00
 3.682257 1  800x            Rx   d 8 00 00 00 00 00 00 00 00
 3.687644 1  800x            Rx   d 8 00 00 00 00 00 00 00 00
 3.692169 1  A3              Rx   d 8 F3 C5 35 1F 10 00 00 00
 3.696195 1  B1              Rx   d 8 A5 00 5B FF 00 00 00 00
 3.701975 1  800x            Rx   d 8 00 00 00 00 00 00 00 00
 3.706002 1  A3              Rx   d 8 F3 C5 35 1F 10 00 00 00
 3.710028 1  A4              Rx   d 8 00 00 00 00 00 01 00 00
 3.715813 1  800x            Rx   d 8 00 00 00 00 00 00 00 00
 3.721034 1  800x            Rx   d 8 00 00 00 00 00 00 00 00
 3.726031 1  A0              Rx   d 8 18 01 0D 01 0B 01 73 01
 3.730238 1  AE              Rx   d 8 10 00 30 65 24 05 24 20
 3.730238 1  AC              Rx   d 8 00 00 00 00 F2 16 08 00
 3.740016 1  800x            Rx   d 8 00 00 00 00 00 00 00 00
 3.743998 1  800x            Rx   d 8 00 00 00 00 00 00 00 00
 3.750048 1  A3              Rx   d 8 F3 C5 35 1F 10 00 00 00
 3.755009 1  A4              Rx   d 8 00 00 00 00 00 01 00 00
 3.759012 1  B1              Rx   d 8 A5 00 5B FF 00 00 00 00
 3.763034 1  800x            Rx   d 8 00 00 00 00 00 00 00 00
 3.763034 1  800x            Rx   d 8 00 00 00 00 00 00 00 00
 3.763034 1  A3              Rx   d 8 F3 C5 35 1F 10 00 00 00
 3.777453 1  B1              Rx   d 8 A5 00 5B FF 00 00 00 00
 3.783486 1  800x            Rx   d 8 00 00 00 00 00 00 00 00
 3.787506 1  A3              Rx   d 8 F3 C5 35 1F 10 00 00 00
 3.793282 1  A4              Rx   d 8 00 00 00 00 00 01 00 00
 3.793282 1  AC              Rx   d 8 00 00 00 00 07 17 08 00
 3.793282 1  800x            Rx   d 8 00 00 00 00 00 00 00 00
 3.805023 1  800x            Rx   d 8 00 00 00 00 00 00 00 00
 3.812997 1  A3              Rx   d 8 F3 C5 35 1F 10 00 00 00
 3.818080 1  A4              Rx   d 8 00 00 00 00 00 01 00 00
 3.822966 1  B1              Rx   d 8 A5 00 5B FF 00 00 00 00
 3.828040 1  800x            Rx   d 8 00 00 00 00 00 00 00 00
 3.831956 1  AE              Rx   d 8 10 00 30 65 24 05 24 20
 3.837563 1  800x            Rx   d 8 00 00 00 00 00 00 00 00
 3.841176 1  B1              Rx   d 8 A5 00 5B FF 00 00 00 00
 3.843185 1  800x            Rx   d 8 00 00 00 00 00 00 00 00
 3.849110 1  800x            Rx   d 8 00 00 00 00 00 00 00 00
 3.856552 1  A3              Rx   d 8 F3 C5 35 1F 10 00 00 00
 3.856552 1  AB              Rx   d 8 00 00 00 00 00 08 00 00
 3.866090 1  B1              Rx   d 8 A5 00 5B FF 00 00 00 00
 3.867151 1  800x            Rx   d 8 00 00 00 00 00 00 00 00
 3.875844 1  A3              Rx   d 8 F3 C5 35 1F 10 00 00 00
 3.877887 1  A4              Rx   d 8 00 00 00 00 00 01 00 00
 3.877887 1  800x            Rx   d 8 00 00 00 00 00 00 00 00
 3.888287 1  800x            Rx   d 8 00 00 00 00 00 00 00 00
 3.888287 1  A3              Rx   d 8 F3 C5 35 1F 10 00 00 00
 3.888287 1  A4              Rx   d 8 00 00 00 00 00 01 00 00
 3.904047 1  B1              Rx   d 8 A5 00 5B FF 00 00 00 00
 3.908464 1  800x            Rx   d 8 00 00 00 00 00 00 00 00
 3.908464 1  800x            Rx   d 8 00 00 00 00 00 00 00 00
 3.919890 1  A3              Rx   d 8 F3 C5 35 1F 10 00 00 00
 3.919890 1  AD              Rx   d 8 05 00 00 00 00 00 00 00
 3.919890 1  B1              Rx   d 8 A5 00 5B FF 00 00 00 00
 3.919890 1  AE              Rx   d 8 10 00 30 65 24 05 24 20
 3.939094 1  800x            Rx   d 8 00 00 00 00 00 00 00 00
 3.944104 1  A3              Rx   d 8 F3 C5 35 1F 10 00 00 00
 3.949093 1  B1              Rx   d 8 A5 00 5B FF 00 00 00 00
 3.954561 1  800x            Rx   d 8 00 00 00 00 00 00 00 00
 3.958113 1  A3              Rx   d 8 F3 C5 35 1F 10 00 00 00
 3.963096 1  A4              Rx   d 8 00 00 00 00 00 01 00 00
 3.968487 1  800x            Rx   d 8 00 00 00 00 00 00 00 00
 3.973495 1  800x            Rx   d 8 00 00 00 00 00 00 00 00
 3.977525 1  A3              Rx   d 8 F3 C5 35 1F 10 00 00 00
 3.983221 1  A4              Rx   d 8 00 00 00 00 00 01 00 00
 3.987076 1  AD              Rx   d 8 00 00 00 00 00 00 00 00
 3.992017 1  800x            Rx   d 8 00 00 00 00 00 00 00 00
 3.997992 1  800x            Rx   d 8 00 00 00 00 00 00 00 00
 4.002124 1  A3              Rx   d 8 F3 C5 35 1F 10 00 00 00
 4.006366 1  A4              Rx   d 8 00 00 00 00 00 01 00 00
 4.012028 1  B1              Rx   d 8 A5 00 5B FF 00 00 00 00
 4.015234 1  800x            Rx   d 8 00 00 00 00 00 00 00 00
 4.021999 1  800x            Rx   d 8 00 00 00 00 00 00 00 00
 4.026943 1  A3              Rx   d 8 F3 C5 35 1F 10 00 00 00
 4.030283 1  B1              Rx   d 8 A5 00 5B FF 00 00 00 00
 4.035205 1  AE              Rx   d 8 10 00 30 65 24 05 24 20
 4.041248 1  800x            Rx   d 8 00 00 00 00 00 00 00 00
 4.046060 1  A3              Rx   d 8 F3 C5 35 1F 10 00 00 00
 4.049790 1  AB              Rx   d 8 00 00 00 00 00 08 00 00
 4.054354 1  800x            Rx   d 8 00 00 00 00 00 00 00 00
 4.054354 1  800x            Rx   d 8 00 00 00 00 00 00 00 00
 4.064742 1  A3              Rx   d 8 F3 C5 35 1F 10 00 00 00
 4.064742 1  A4              Rx   d 8 00 00 00 00 00 01 00 00
 4.064742 1  B1              Rx   d 8 A5 00 5B FF 00 00 00 00
 4.080035 1  800x            Rx   d 8 00 00 00 00 00 00 00 00
 4.084031 1  800x            Rx   d 8 00 00 00 00 00 00 00 00
 4.088031 1  A3              Rx   d 8 F3 C5 35 1F 10 00 00 00
 4.093538 1  B1              Rx   d 8 A5 00 5B FF 00 00 00 00
 4.096266 1  800x            Rx   d 8 00 00 00 00 00 00 00 00
 4.096266 1  800x            Rx   d 8 00 00 00 00 00 00 00 00
 4.106340 1  A3              Rx   d 8 F3 C5 35 1F 10 00 00 00
 4.112111 1  AC              Rx   d 8 00 00 00 00 70 17 08 00
 4.117046 1  B1              Rx   d 8 A5 00 5B FF 00 00 00 00
 4.117046 1  800x            Rx   d 8 00 00 00 00 00 00 00 00
 4.128533 1  A3              Rx   d 8 F3 C5 35 1F 10 00 00 00
 4.129120 1  A4              Rx   d 8 00 00 00 00 00 01 00 00
 4.129120 1  AE              Rx   d 8 10 00 30 65 24 05 24 20
 4.141461 1  800x            Rx   d 8 00 00 00 00 00 00 00 00
 4.141461 1  A3              Rx   d 8 F3 C5 35 1F 10 00 00 00
 4.141461 1  A4              Rx   d 8 00 00 00 00 00 01 00 00
 4.141461 1  B1              Rx   d 8 A5 00 5B FF 00 00 00 00
 4.160050 1  800x            Rx   d 8 00 00 00 00 00 00 00 00
 4.160050 1  800x            Rx   d 8 00 00 00 00 00 00 00 00
 4.172153 1  A3              Rx   d 8 F3 C5 35 1F 10 00 00 00
 4.174808 1  AB              Rx   d 8 00 00 00 00 00 08 00 00
 4.179875 1  B1              Rx   d 8 A5 00 5B FF 00 00 00 00
 4.179875 1  800x            Rx   d 8 00 00 00 00 00 00 00 00
 4.192464 1  800x            Rx   d 8 00 00 00 00 00 00 00 00
 4.193048 1  A3              Rx   d 8 F3 C5 35 1F 10 00 00 00
 4.201012 1  B1              Rx   d 8 A5 00 5B FF 00 00 00 00
 4.206214 1  800x            Rx   d 8 00 00 00 00 00 00 00 00
 4.213324 1  A3              Rx   d 8 F3 C5 35 1F 10 00 00 00
 4.214226 1  A4              Rx   d 8 00 00 00 00 00 01 00 00
 4.217724 1  800x            Rx   d 8 00 00 00 00 00 00 00 00
 4.222092 1  800x            Rx   d 8 00 00 00 00 00 00 00 00
 4.222092 1  A3              Rx   d 8 F3 C5 35 1F 10 00 00 00
 4.222092 1  A0              Rx   d 8 18 01 0D 01 0B 01 72 01
 4.237116 1  A9              Rx   d 8 94 00 FC 00 FB 01 58 09
 4.237116 1  800x            Rx   d 8 00 00 00 00 00 00 00 00
 4.250273 1  800x            Rx   d 8 00 00 00 00 00 00 00 00
 4.252991 1  A3              Rx   d 8 F3 C5 35 1F 10 00 00 00
 4.252991 1  A5              Rx   d 8 BF 0C FD FF 00 00 ED FF
 4.252991 1  B1              Rx   d 8 A5 00 5B FF 00 00 00 00
 4.268844 1  800x            Rx   d 8 00 00 00 00 00 00 00 00
 4.268844 1  800x            Rx   d 8 00 00 00 00 00 00 00 00
 4.277107 1  A3              Rx   d 8 F3 C5 35 1F 10 00 00 00
 4.277107 1  B1              Rx   d 8 A5 00 5B FF 00 00 00 00
 4.284683 1  800x            Rx   d 8 00 00 00 00 00 00 00 00
 4.284683 1  A3              Rx   d 8 F3 C5 35 1F 10 00 00 00
 4.284683 1  A4              Rx   d 8 00 00 00 00 00 01 00 00
 4.300386 1  B1              Rx   d 8 A5 00 5B FF 00 00 00 00
 4.300386 1  800x            Rx   d 8 00 00 00 00 00 00 00 00
 4.300386 1  800x            Rx   d 8 00 00 00 00 00 00 00 00
 4.318404 1  A3              Rx   d 8 F3 C5 35 1F 10 00 00 00
 4.319406 1  A5              Rx   d 8 AA 0B FC FF 00 00 91 00
 4.319406 1  B1              Rx   d 8 A5 00 5B FF 00 00 00 00
 4.332218 1  800x            Rx   d 8 00 00 00 00 00 00 00 00
 4.333043 1  800x            Rx   d 8 00 00 00 00 00 00 00 00
 4.333043 1  AE              Rx   d 8 10 00 30 65 24 05 24 20
 4.333043 1  B1              Rx   d 8 A5 00 5B FF 00 00 00 00
 4.348182 1  800x            Rx   d 8 00 00 00 00 00 00 00 00
 4.348182 1  800x            Rx   d 8 00 00 00 00 00 00 00 00
 4.348182 1  A3              Rx   d 8 F3 C5 35 1F 10 00 00 00
 4.365479 1  AC              Rx   d 8 00 00 00 00 C4 17 08 00
 4.367690 1  B1              Rx   d 8 A5 00 5B FF 00 00 00 00
 4.367690 1  800x            Rx   d 8 00 00 00 00 00 00 00 00
 4.381903 1  A3              Rx   d 8 F3 C5 35 1F 10 00 00 00
 4.381903 1  A5              Rx   d 8 41 0A FA FF 00 00 64 01
 4.381903 1  800x            Rx   d 8 00 00 00 00 00 00 00 00
 4.381903 1  800x            Rx   d 8 00 00 00 00 00 00 00 00
 4.396287 1  A3              Rx   d 8 F3 C5 35 1F 10 00 00 00
 4.396287 1  A4              Rx   d 8 00 00 00 00 00 01 00 00
 4.407817 1  B1              Rx   d 8 A5 00 5B FF 00 00 00 00
 4.412371 1  800x            Rx   d 8 00 00 00 00 00 00 00 00
 4.412371 1  800x            Rx   d 8 00 00 00 00 00 00 00 00
 4.412371 1  A3              Rx   d 8 F3 C5 35 1F 10 00 00 00
 4.428025 1  B1              Rx   d 8 A5 00 5B FF 00 00 00 00
 4.428025 1  800x            Rx   d 8 00 00 00 00 00 00 00 00
 4.428025 1  A0              Rx   d 8 18 01 0D 01 0B 01 72 01
 4.443949 1  AE              Rx   d 8 10 00 30 65 24 05 24 20
 4.445965 1  A6              Rx   d 8 01 00 00 00 FB FF 00 00
 4.445965 1  B1              Rx   d 8 A5 00 5B FF 00 00 00 00
 4.445965 1  800x            Rx   d 8 00 00 00 00 00 00 00 00
 4.459588 1  A3              Rx   d 8 F3 C5 35 1F 10 00 00 00
 4.459588 1  A4              Rx   d 8 00 00 00 00 00 01 00 00
 4.459588 1  800x            Rx   d 8 00 00 00 00 00 00 00 00
 4.477123 1  800x            Rx   d 8 00 00 00 00 00 00 00 00
 4.477123 1  A3              Rx   d 8 F3 C5 35 1F 10 00 00 00
 4.484023 1  A4              Rx   d 8 00 00 00 00 00 01 00 00
 4.491422 1  B1              Rx   d 8 A5 00 5B FF 00 00 00 00
 4.491422 1  800x            Rx   d 8 00 00 00 00 00 00 00 00
 4.491422 1  800x            Rx   d 8 00 00 00 00 00 00 00 00
 4.507377 1  A3              Rx   d 8 F3 C5 35 1F 10 00 00 00
 4.508707 1  A5              Rx   d 8 F8 04 F4 FF 00 00 F6 00
 4.508707 1  B1              Rx   d 8 A5 00 5B FF 00 00 00 00
 4.508707 1  800x            Rx   d 8 00 00 00 00 00 00 00 00
 4.523379 1  800x            Rx   d 8 00 00 00 00 00 00 00 00
 4.530378 1  A3              Rx   d 8 F3 C5 35 1F 10 00 00 00
 4.530378 1  B1              Rx   d 8 A5 00 5B FF 00 00 00 00
 4.540444 1  800x            Rx   d 8 00 00 00 00 00 00 00 00
 4.540444 1  AE              Rx   d 8 10 00 30 65 24 05 24 20
 4.540444 1  A3              Rx   d 8 F3 C5 35 1F 10 00 00 00
 4.555478 1  B1              Rx   d 8 A5 00 5B FF 00 00 00 00
 4.555478 1  800x            Rx   d 8 00 00 00 00 00 00 00 00
 4.555478 1  800x            Rx   d 8 00 00 00 00 00 00 00 00
 4.555478 1  A3              Rx   d 8 F3 C5 35 1F 10 00 00 00
 4.577324 1  A5              Rx   d 8 13 02 F1 FF 00 00 85 FF
 4.577324 1  B1              Rx   d 8 A5 00 5B FF 00 00 00 00
 4.583617 1  800x            Rx   d 8 00 00 00 00 00 00 00 00
 4.589676 1  800x            Rx   d 8 00 00 00 00 00 00 00 00
 4.593690 1  A3              Rx   d 8 F3 C5 35 1F 10 00 00 00
 4.597703 1  B1              Rx   d 8 A5 00 5B FF 00 00 00 00
 4.605256 1  800x            Rx   d 8 00 00 00 00 00 00 00 00
 4.608381 1  800x            Rx   d 8 00 00 00 00 00 00 00 00
 4.613171 1  A3              Rx   d 8 F3 C5 35 1F 10 00 00 00
 4.618956 1  AD              Rx   d 8 13 01 00 00 00 00 00 00
 4.618956 1  B1              Rx   d 8 A5 00 5B FF 00 00 00 00
 4.618956 1  800x            Rx   d 8 00 00 00 00 00 00 00 00
 4.618956 1  A3              Rx   d 8 F3 C5 35 1F 10 00 00 00
 4.634809 1  A6              Rx   d 8 06 00 00 00 02 00 00 00
 4.634809 1  800x            Rx   d 8 00 00 00 00 00 00 00 00
 4.634809 1  AE              Rx   d 8 10 00 30 65 24 05 24 20
 4.650726 1  800x            Rx   d 8 00 00 00 00 00 00 00 00
 4.650726 1  A3              Rx   d 8 F3 C5 35 1F 10 00 00 00
 4.650726 1  B1              Rx   d 8 A5 00 5B FF 00 00 00 00
 4.666556 1  800x            Rx   d 8 00 00 00 00 00 00 00 00
 4.666556 1  800x            Rx   d 8 00 00 00 00 00 00 00 00
 4.666556 1  A3              Rx   d 8 F2 C5 35 1F 10 00 00 00
 4.677665 1  B1              Rx   d 8 A5 00 5B FF 00 00 00 00
 4.682553 1  800x            Rx   d 8 00 00 00 00 00 00 00 00
 4.682553 1  800x            Rx   d 8 00 00 00 00 00 00 00 00
 4.682553 1  A3              Rx   d 8 F3 C5 35 1F 10 00 00 00
 4.698394 1  A6              Rx   d 8 0A 00 FD FF 07 00 00 00
 4.698394 1  B1              Rx   d 8 A5 00 5B FF 00 00 00 00
 4.698394 1  800x            Rx   d 8 00 00 00 00 00 00 00 00
 4.715248 1  A3              Rx   d 8 F3 C5 35 1F 10 00 00 00
 4.718351 1  A4              Rx   d 8 00 00 00 00 00 01 00 00
 4.718351 1  800x            Rx   d 8 00 00 00 00 00 00 00 00
 4.730175 1  800x            Rx   d 8 00 00 00 00 00 00 00 00
 4.735386 1  A3              Rx   d 8 F3 C5 35 1F 10 00 00 00
 4.738314 1  A4              Rx   d 8 00 00 00 00 00 01 00 00
 4.738314 1  B1              Rx   d 8 A5 00 5B FF 00 00 00 00
 4.750836 1  AE              Rx   d 8 10 00 30 65 24 05 24 20
 4.751988 1  800x            Rx   d 8 00 00 00 00 00 00 00 00
 4.758974 1  A3              Rx   d 8 F3 C5 35 1F 10 00 00 00
 4.763874 1  A6              Rx   d 8 FB FF F9 FF FB FF 00 00
 4.767208 1  B1              Rx   d 8 A5 00 5B FF 00 00 00 00
 4.767208 1  800x            Rx   d 8 00 00 00 00 00 00 00 00
 4.777638 1  800x            Rx   d 8 00 00 00 00 00 00 00 00
 4.782411 1  A3              Rx   d 8 F3 C5 35 1F 10 00 00 00
 4.788124 1  B1              Rx   d 8 A5 00 5B FF 00 00 00 00
 4.793428 1  800x            Rx   d 8 00 00 00 00 00 00 00 00
 4.793428 1  A3              Rx   d 8 F3 C5 35 1F 10 00 00 00
 4.799303 1  A4              Rx   d 8 00 00 00 00 00 01 00 00
 4.799303 1  B1              Rx   d 8 A5 00 5B FF 00 00 00 00
 4.810694 1  800x            Rx   d 8 00 00 00 00 00 00 00 00
 4.812951 1  800x            Rx   d 8 00 00 00 00 00 00 00 00
 4.812951 1  A3              Rx   d 8 F3 C5 35 1F 10 00 00 00
 4.824409 1  A6              Rx   d 8 FB FF 04 00 03 00 00 00
 4.824409 1  B1              Rx   d 8 A5 00 5B FF 00 00 00 00
 4.832628 1  800x            Rx   d 8 00 00 00 00 00 00 00 00
 4.840309 1  800x            Rx   d 8 00 00 00 00 00 00 00 00
 4.846112 1  A3              Rx   d 8 F3 C5 35 1F 10 00 00 00
 4.851182 1  AE              Rx   d 8 10 00 30 65 24 05 24 20
 4.856164 1  800x            Rx   d 8 00 00 00 00 00 00 00 00
 4.860586 1  800x            Rx   d 8 00 00 00 00 00 00 00 00
 4.866069 1  A3              Rx   d 8 F3 C5 35 1F 10 00 00 00
 4.866069 1  B1              Rx   d 8 A5 00 5B FF 00 00 00 00
 4.872264 1  800x            Rx   d 8 00 00 00 00 00 00 00 00
 4.878375 1  A3              Rx   d 8 F3 C5 35 1F 10 00 00 00
 4.883883 1  A4              Rx   d 8 00 00 00 00 00 01 00 00
 4.888017 1  A8              Rx   d 8 00 00 FA FF 07 00 07 00
 4.888017 1  800x            Rx   d 8 00 00 00 00 00 00 00 00
 4.888017 1  800x            Rx   d 8 00 00 00 00 00 00 00 00
 4.903800 1  A3              Rx   d 8 F3 C5 35 1F 10 00 00 00
 4.903800 1  A4              Rx   d 8 00 00 00 00 00 01 00 00
 4.903800 1  B1              Rx   d 8 A5 00 5B FF 00 00 00 00
 4.919000 1  800x            Rx   d 8 00 00 00 00 00 00 00 00
 4.920120 1  800x            Rx   d 8 00 00 00 00 00 00 00 00
 4.920120 1  A3              Rx   d 8 F3 C5 35 1F 10 00 00 00
 4.920120 1  B1              Rx   d 8 A5 00 5B FF 00 00 00 00
 4.934824 1  800x            Rx   d 8 00 00 00 00 00 00 00 00
 4.934824 1  800x            Rx   d 8 00 00 00 00 00 00 00 00
 4.934824 1  A0              Rx   d 8 18 01 0C 01 0B 01 73 01
 4.953813 1  A4              Rx   d 8 00 00 00 00 00 01 00 00
 4.953813 1  B1              Rx   d 8 A5 00 5B FF 00 00 00 00
 4.953813 1  800x            Rx   d 8 00 00 00 00 00 00 00 00
 4.966249 1  A3              Rx   d 8 F3 C5 35 1F 10 00 00 00
 4.966249 1  A4              Rx   d 8 00 00 00 00 00 01 00 00
 4.966249 1  800x            Rx   d 8 00 00 00 00 00 00 00 00
 4.982157 1  800x            Rx   d 8 00 00 00 00 00 00 00 00
 4.982157 1  A3              Rx   d 8 F3 C5 35 1F 10 00 00 00
 4.989434 1  A4              Rx   d 8 00 00 00 00 00 01 00 00
 4.989434 1  B1              Rx   d 8 A5 00 5B FF 00 00 00 00
 5.000227 1  800x            Rx   d 8 00 00 00 00 00 00 00 00
 5.000227 1  800x            Rx   d 8 00 00 00 00 00 00 00 00
 5.010761 1  A3              Rx   d 8 F3 C5 35 1F 10 00 00 00
 5.014328 1  A8              Rx   d 8 00 00 F9 FF F5 FF FA FF
 5.014328 1  B1              Rx   d 8 A5 00 5B FF 00 00 00 00
 5.014328 1  800x            Rx   d 8 00 00 00 00 00 00 00 00
 5.030376 1  800x            Rx   d 8 00 00 00 00 00 00 00 00
 5.032340 1  A3              Rx   d 8 F3 C5 35 1F 10 00 00 00
 5.032340 1  B1              Rx   d 8 A5 00 5B FF 00 00 00 00
 5.042375 1  800x            Rx   d 8 00 00 00 00 00 00 00 00
 5.046486 1  A0              Rx   d 8 18 01 0D 01 0B 01 73 01
 5.051682 1  AE              Rx   d 8 10 00 30 65 24 05 24 20
 5.051682 1  800x            Rx   d 8 00 00 00 00 00 00 00 00
 5.062500 1  800x            Rx   d 8 00 00 00 00 00 00 00 00
 5.062500 1  A3              Rx   d 8 F3 C5 35 1F 10 00 00 00
 5.062500 1  A4              Rx   d 8 00 00 00 00 00 01 00 00
 5.078070 1  AB              Rx   d 8 00 00 00 00 00 08 00 00
 5.078070 1  800x            Rx   d 8 00 00 00 00 00 00 00 00
 5.078070 1  800x            Rx   d 8 00 00 00 00 00 00 00 00
 5.093952 1  A3              Rx   d 8 F3 C5 35 1F 10 00 00 00
 5.093952 1  A4              Rx   d 8 00 00 00 00 00 01 00 00
 5.093952 1  B1              Rx   d 8 A5 00 5B FF 00 00 00 00
 5.093952 1  800x            Rx   d 8 00 00 00 00 00 00 00 00
 5.109603 1  800x            Rx   d 8 00 00 00 00 00 00 00 00
 5.109603 1  A3              Rx   d 8 F3 C5 35 1F 10 00 00 00
 5.109603 1  B1              Rx   d 8 A5 00 5B FF 00 00 00 00
 5.126362 1  800x            Rx   d 8 00 00 00 00 00 00 00 00
 5.126362 1  A3              Rx   d 8 F3 C5 35 1F 10 00 00 00
 5.126362 1  A4              Rx   d 8 00 00 00 00 00 01 00 00
 5.141443 1  AB              Rx   d 8 00 00 00 00 00 08 00 00
 5.141443 1  800x            Rx   d 8 00 00 00 00 00 00 00 00
 5.141443 1  800x            Rx   d 8 00 00 00 00 00 00 00 00
 5.157373 1  A2              Rx   d 8 10 01 10 01 65 05 00 00
 5.157373 1  A3              Rx   d 8 F3 C5 35 1F 10 00 00 00
 5.157373 1  B1              Rx   d 8 A5 00 5B FF 00 00 00 00
 5.157373 1  800x            Rx   d 8 00 00 00 00 00 00 00 00
 5.173376 1  800x            Rx   d 8 00 00 00 00 00 00 00 00
 5.178284 1  A3              Rx   d 8 F3 C5 35 1F 10 00 00 00
 5.178284 1  B1              Rx   d 8 A5 00 5B FF 00 00 00 00
 5.189379 1  800x            Rx   d 8 00 00 00 00 00 00 00 00
 5.189379 1  800x            Rx   d 8 00 00 00 00 00 00 00 00
 5.189379 1  A3              Rx   d 8 F3 C5 35 1F 10 00 00 00
 5.205081 1  AA              Rx   d 8 07 0C 09 00 00 F0 C0 00
 5.209425 1  B1              Rx   d 8 A5 00 5B FF 00 00 00 00
 5.212526 1  800x            Rx   d 8 00 00 00 00 00 00 00 00
 5.212526 1  A3              Rx   d 8 F3 C5 35 1F 10 00 00 00
 5.223434 1  A4              Rx   d 8 00 00 00 00 00 01 00 00
 5.229583 1  800x            Rx   d 8 00 00 00 00 00 00 00 00
 5.233605 1  800x            Rx   d 8 00 00 00 00 00 00 00 00
 5.237363 1  A3              Rx   d 8 F3 C5 35 1F 10 00 00 00
 5.237363 1  A4              Rx   d 8 00 00 00 00 00 01 00 00
 5.249109 1  B1              Rx   d 8 A5 00 5B FF 00 00 00 00
 5.253250 1  800x            Rx   d 8 00 00 00 00 00 00 00 00
 5.253250 1  AE              Rx   d 8 10 00 30 65 24 05 24 20
 5.253250 1  800x            Rx   d 8 00 00 00 00 00 00 00 00
 5.269379 1  AC              Rx   d 8 00 00 00 00 F1 18 08 00
 5.269379 1  B1              Rx   d 8 A5 00 5B FF 00 00 00 00
 5.278300 1  800x            Rx   d 8 00 00 00 00 00 00 00 00
 5.278300 1  800x            Rx   d 8 00 00 00 00 00 00 00 00
 5.286480 1  A3              Rx   d 8 F3 C5 35 1F 10 00 00 00
 5.286480 1  B1              Rx   d 8 A5 00 5B FF 00 00 00 00
 5.286480 1  800x            Rx   d 8 00 00 00 00 00 00 00 00
 5.302017 1  A3              Rx   d 8 F3 C5 35 1F 10 00 00 00
 5.302017 1  A4              Rx   d 8 00 00 00 00 00 01 00 00
 5.302017 1  800x            Rx   d 8 00 00 00 00 00 00 00 00
 5.317377 1  800x            Rx   d 8 00 00 00 00 00 00 00 00
 5.320383 1  A3              Rx   d 8 F3 C5 35 1F 10 00 00 00
 5.320383 1  A4              Rx   d 8 00 00 00 00 00 01 00 00
 5.320383 1  B1              Rx   d 8 A5 00 5B FF 00 00 00 00
 5.337126 1  800x            Rx   d 8 00 00 00 00 00 00 00 00
 5.340224 1  800x            Rx   d 8 00 00 00 00 00 00 00 00
 5.344265 1  A3              Rx   d 8 F3 C5 35 1F 10 00 00 00
 5.348884 1  A5              Rx   d 8 4B 02 F5 FF 00 00 5D FE
 5.348884 1  B1              Rx   d 8 A5 00 5B FF 00 00 00 00
 5.348884 1  AE              Rx   d 8 10 00 30 65 24 05 24 20
 5.364614 1  800x            Rx   d 8 00 00 00 00 00 00 00 00
 5.364614 1  A3              Rx   d 8 F3 C5 35 1F 10 00 00 00
 5.364614 1  B1              Rx   d 8 A5 00 5B FF 00 00 00 00
 5.380448 1  800x            Rx   d 8 00 00 00 00 00 00 00 00
 5.384423 1  A3              Rx   d 8 F3 C5 35 1F 10 00 00 00
 5.384423 1  A4              Rx   d 8 00 00 00 00 00 01 00 00
 5.384423 1  AC              Rx   d 8 00 00 00 00 1B 19 08 00
 5.396356 1  800x            Rx   d 8 00 00 00 00 00 00 00 00
 5.396356 1  800x            Rx   d 8 00 00 00 00 00 00 00 00
 5.396356 1  A3              Rx   d 8 F3 C5 35 1F 10 00 00 00
 5.412013 1  A4              Rx   d 8 00 00 00 00 00 01 00 00
 5.412013 1  B1              Rx   d 8 A5 00 5B FF 00 00 00 00
 5.412013 1  800x            Rx   d 8 00 00 00 00 00 00 00 00
 5.427804 1  800x            Rx   d 8 00 00 00 00 00 00 00 00
 5.427804 1  A3              Rx   d 8 F3 C5 35 1F 10 00 00 00
 5.427804 1  B1              Rx   d 8 A5 00 5B FF 00 00 00 00
 5.427804 1  800x            Rx   d 8 00 00 00 00 00 00 00 00
 5.443613 1  800x            Rx   d 8 00 00 00 00 00 00 00 00
 5.443613 1  A3              Rx   d 8 F3 C5 35 1F 10 00 00 00
 5.443613 1  AB              Rx   d 8 00 00 00 00 00 08 00 00
 5.459421 1  AE              Rx   d 8 10 00 30 65 24 05 24 20
 5.467429 1  800x            Rx   d 8 00 00 00 00 00 00 00 00
 5.470383 1  A3              Rx   d 8 F3 C5 35 1F 10 00 00 00
 5.475467 1  A4              Rx   d 8 00 00 00 00 00 01 00 00
 5.481670 1  800x            Rx   d 8 00 00 00 00 00 00 00 00
 5.486925 1  800x            Rx   d 8 00 00 00 00 00 00 00 00
 5.491475 1  A3              Rx   d 8 F3 C5 35 1F 10 00 00 00
 5.491475 1  A4              Rx   d 8 00 00 00 00 00 01 00 00
 5.491475 1  B1              Rx   d 8 A5 00 5B FF 00 00 00 00
 5.491475 1  800x            Rx   d 8 00 00 00 00 00 00 00 00
 5.507362 1  800x            Rx   d 8 00 00 00 00 00 00 00 00
 5.507362 1  A3              Rx   d 8 F3 C5 35 1F 10 00 00 00
 5.517636 1  AD              Rx   d 8 00 00 00 00 00 00 00 00
 5.526057 1  B1              Rx   d 8 A5 00 5B FF 00 00 00 00
 5.528039 1  800x            Rx   d 8 00 00 00 00 00 00 00 00
 5.533611 1  800x            Rx   d 8 00 00 00 00 00 00 00 00
 5.539871 1  A3              Rx   d 8 F3 C5 35 1F 10 00 00 00
 5.539871 1  B1              Rx   d 8 A5 00 5B FF 00 00 00 00
 5.548249 1  800x            Rx   d 8 00 00 00 00 00 00 00 00
 5.555288 1  A3              Rx   d 8 F3 C5 35 1F 10 00 00 00
 5.555288 1  A4              Rx   d 8 00 00 00 00 00 01 00 00
 5.555288 1  A9              Rx   d 8 95 00 FC 00 FB 01 5B 09
 5.555288 1  AE              Rx   d 8 10 00 30 65 24 05 24 20
 5.572465 1  800x            Rx   d 8 00 00 00 00 00 00 00 00
 5.579289 1  A3              Rx   d 8 F3 C5 35 1F 10 00 00 00
 5.579289 1  AB              Rx   d 8 00 00 00 00 00 08 00 00
 5.587209 1  800x            Rx   d 8 00 00 00 00 00 00 00 00
 5.587209 1  800x            Rx   d 8 00 00 00 00 00 00 00 00
 5.587209 1  A3              Rx   d 8 F3 C5 35 1F 10 00 00 00
 5.603065 1  A4              Rx   d 8 00 00 00 00 00 01 00 00
 5.604270 1  B1              Rx   d 8 A5 00 5B FF 00 00 00 00
 5.612240 1  800x            Rx   d 8 00 00 00 00 00 00 00 00
 5.614122 1  800x            Rx   d 8 00 00 00 00 00 00 00 00
 5.623151 1  A3              Rx   d 8 F3 C5 35 1F 10 00 00 00
 5.626328 1  B1              Rx   d 8 A5 00 5B FF 00 00 00 00
 5.630349 1  800x            Rx   d 8 00 00 00 00 00 00 00 00
 5.634951 1  A3              Rx   d 8 F3 C5 35 1F 11 00 00 00
 5.634951 1  A4              Rx   d 8 00 00 00 00 00 01 00 00
 5.642962 1  AD              Rx   d 8 00 00 00 00 00 00 00 00
 5.650844 1  800x            Rx   d 8 00 00 00 00 00 00 00 00
 5.654946 1  800x            Rx   d 8 00 00 00 00 00 00 00 00
 5.654946 1  A3              Rx   d 8 F3 C5 35 1F 10 00 00 00
 5.666533 1  A0              Rx   d 8 18 01 0D 01 0B 01 72 01
 5.666533 1  B1              Rx   d 8 A5 00 5B FF 00 00 00 00
 5.666533 1  800x            Rx   d 8 00 00 00 00 00 00 00 00
 5.679585 1  800x            Rx   d 8 00 00 00 00 00 00 00 00
 5.682425 1  A3              Rx   d 8 F3 C5 35 1F 10 00 00 00
 5.682425 1  B1              Rx   d 8 A5 00 5B FF 00 00 00 00
 5.682425 1  800x            Rx   d 8 00 00 00 00 00 00 00 00
 5.698313 1  800x            Rx   d 8 00 00 00 00 00 00 00 00
 5.698313 1  A3              Rx   d 8 F3 C5 35 1F 10 00 00 00
 5.698313 1  AC              Rx   d 8 00 00 00 00 84 19 08 00
 5.714338 1  B1              Rx   d 8 A5 00 5B FF 00 00 00 00
 5.714338 1  800x            Rx   d 8 00 00 00 00 00 00 00 00
 5.714338 1  A3              Rx   d 8 F3 C5 35 1F 10 00 00 00
 5.729746 1  A5              Rx   d 8 FA 01 FF FF 00 00 0E FE
 5.733776 1  800x            Rx   d 8 00 00 00 00 00 00 00 00
 5.737794 1  800x            Rx   d 8 00 00 00 00 00 00 00 00
 5.743820 1  A3              Rx   d 8 F3 C5 35 1F 10 00 00 00
 5.747584 1  A4              Rx   d 8 00 00 00 00 00 01 00 00
 5.747584 1  B1              Rx   d 8 A5 00 5B FF 00 00 00 00
 5.747584 1  800x            Rx   d 8 00 00 00 00 00 00 00 00
 5.763827 1  800x            Rx   d 8 00 00 00 00 00 00 00 00
 5.765840 1  A0              Rx   d 8 18 01 0D 01 0B 01 72 01
 5.765840 1  AD              Rx   d 8 FF FF 00 00 00 00 00 00
 5.777332 1  B1              Rx   d 8 A5 00 5B FF 00 00 00 00
 5.779853 1  800x            Rx   d 8 00 00 00 00 00 00 00 00
 5.784843 1  800x            Rx   d 8 00 00 00 00 00 00 00 00
 5.784843 1  A3              Rx   d 8 F3 C5 35 1F 10 00 00 00
 5.793154 1  B1              Rx   d 8 A5 00 5B FF 00 00 00 00
 5.799483 1  800x            Rx   d 8 00 00 00 00 00 00 00 00
 5.799483 1  A3              Rx   d 8 F3 C5 35 1F 10 00 00 00
 5.810034 1  A4              Rx   d 8 00 00 00 00 00 01 00 00
 5.815305 1  800x            Rx   d 8 00 00 00 00 00 00 00 00
 5.815305 1  800x            Rx   d 8 00 00 00 00 00 00 00 00
 5.825044 1  A3              Rx   d 8 F3 C5 35 1F 10 00 00 00
 5.825044 1  A4              Rx   d 8 00 00 00 00 00 01 00 00
 5.825044 1  B1              Rx   d 8 A5 00 5B FF 00 00 00 00
 5.841020 1  800x            Rx   d 8 00 00 00 00 00 00 00 00
 5.841020 1  800x            Rx   d 8 00 00 00 00 00 00 00 00
 5.851253 1  A3              Rx   d 8 F3 C5 35 1F 10 00 00 00
 5.855270 1  A7              Rx   d 8 07 00 00 00 00 00 FF FF
 5.857020 1  B1              Rx   d 8 A5 00 5B FF 00 00 00 00
 5.857020 1  800x            Rx   d 8 00 00 00 00 00 00 00 00
 5.857020 1  A2              Rx   d 8 10 01 10 01 65 05 00 00
 5.872974 1  AE              Rx   d 8 10 00 30 65 24 05 24 20
 5.878928 1  B1              Rx   d 8 A5 00 5B FF 00 00 00 00
 5.883663 1  800x            Rx   d 8 00 00 00 00 00 00 00 00
 5.889010 1  A3              Rx   d 8 F3 C5 35 1F 10 00 00 00
 5.894416 1  A4              Rx   d 8 00 00 00 00 00 01 00 00
 5.899052 1  B1              Rx   d 8 A5 00 5B FF 00 00 00 00
 5.899052 1  800x            Rx   d 8 00 00 00 00 00 00 00 00
 5.906750 1  800x            Rx   d 8 00 00 00 00 00 00 00 00
 5.906750 1  A3              Rx   d 8 F3 C5 35 1F 10 00 00 00
 5.906750 1  A5              Rx   d 8 FA 01 00 00 00 00 09 FE
 5.921593 1  B1              Rx   d 8 A5 00 5B FF 00 00 00 00
 5.921593 1  800x            Rx   d 8 00 00 00 00 00 00 00 00
 5.921593 1  800x            Rx   d 8 00 00 00 00 00 00 00 00
 5.936312 1  A3              Rx   d 8 F3 C5 35 1F 10 00 00 00
 5.936312 1  B1              Rx   d 8 A5 00 5B FF 00 00 00 00
 5.936312 1  800x            Rx   d 8 00 00 00 00 00 00 00 00
 5.952181 1  800x            Rx   d 8 00 00 00 00 00 00 00 00
 5.952181 1  A3              Rx   d 8 F3 C5 35 1F 10 00 00 00
 5.960283 1  AD              Rx   d 8 FF FF 00 00 00 00 00 00
 5.960283 1  B1              Rx   d 8 A5 00 5B FF 00 00 00 00
 5.968719 1  A0              Rx   d 8 18 01 0D 01 0B 01 72 01
 5.968719 1  AE              Rx   d 8 10 00 30 65 24 05 24 20
 5.980118 1  A5              Rx   d 8 FA 01 00 00 00 00 08 FE
 5.986418 1  800x            Rx   d 8 00 00 00 00 00 00 00 00
 5.990431 1  800x            Rx   d 8 00 00 00 00 00 00 00 00
 5.994443 1  A3              Rx   d 8 F3 C5 35 1F 10 00 00 00
 5.999461 1  A4              Rx   d 8 00 00 00 00 00 01 00 00
 6.003480 1  B1              Rx   d 8 A5 00 5B FF 00 00 00 00
 6.007495 1  800x            Rx   d 8 00 00 00 00 00 00 00 00
 6.015314 1  800x            Rx   d 8 00 00 00 00 00 00 00 00
 6.019850 1  A3              Rx   d 8 F3 C5 35 1F 10 00 00 00
 6.019850 1  AC              Rx   d 8 00 00 00 00 ED 19 08 00
 6.019850 1  B1              Rx   d 8 A5 00 5B FF 00 00 00 00
 6.034443 1  800x            Rx   d 8 00 00 00 00 00 00 00 00
 6.034443 1  800x            Rx   d 8 00 00 00 00 00 00 00 00
 6.034443 1  A3              Rx   d 8 F3 C5 35 1F 10 00 00 00
 6.048321 1  B1              Rx   d 8 A5 00 5B FF 00 00 00 00
 6.048321 1  800x            Rx   d 8 00 00 00 00 00 00 00 00
 6.058625 1  A3              Rx   d 8 F3 C5 35 1F 10 00 00 00
 6.062170 1  A4              Rx   d 8 00 00 00 00 00 01 00 00
 6.065126 1  800x            Rx   d 8 00 00 00 00 00 00 00 00
 6.065126 1  A0              Rx   d 8 18 01 0D 01 0B 01 72 01
 6.078209 1  AE              Rx   d 8 10 00 30 65 24 05 24 20
 6.080276 1  800x            Rx   d 8 00 00 00 00 00 00 00 00
 6.080276 1  AC              Rx   d 8 00 00 00 00 02 1A 08 00
 6.080276 1  800x            Rx   d 8 00 00 00 00 00 00 00 00
 6.096226 1  800x            Rx   d 8 00 00 00 00 00 00 00 00
 6.102010 1  A3              Rx   d 8 F3 CD 35 1F 10 00 00 00
 6.102010 1  A5              Rx   d 8 F1 01 00 00 00 00 08 FE
 6.110033 1  B1              Rx   d 8 A5 00 5B FF 00 00 00 00
 6.110033 1  800x            Rx   d 8 00 00 00 00 00 00 00 00
 6.110033 1  800x            Rx   d 8 00 00 00 00 00 00 00 00
 6.126153 1  A3              Rx   d 8 F3 C5 35 1F 10 00 00 00
 6.133784 1  B1              Rx   d 8 A5 00 5B FF 00 00 00 00
 6.133784 1  800x            Rx   d 8 00 00 00 00 00 00 00 00
 6.133784 1  A3              Rx   d 8 F3 C5 35 1F 10 00 00 00
 6.141978 1  A4              Rx   d 8 00 00 00 00 00 01 00 00
 6.150277 1  B1              Rx   d 8 A5 00 5B FF 00 00 00 00
 6.150277 1  800x            Rx   d 8 00 00 00 00 00 00 00 00
 6.160538 1  800x            Rx   d 8 00 00 00 00 00 00 00 00
 6.163235 1  A3              Rx   d 8 F3 C5 35 1F 10 00 00 00
 6.163235 1  A6              Rx   d 8 FB FF 00 00 FD FF 00 00
 6.173579 1  B1              Rx   d 8 A5 00 5B FF 00 00 00 00
 6.180348 1  AE              Rx   d 8 10 00 30 65 24 05 24 20
 6.180348 1  800x            Rx   d 8 00 00 00 00 00 00 00 00
 6.189533 1  A3              Rx   d 8 F3 C5 35 1F 10 00 00 00
 6.189533 1  B1              Rx   d 8 A5 00 5B FF 00 00 00 00
 6.189533 1  800x            Rx   d 8 00 00 00 00 00 00 00 00
 6.189533 1  800x            Rx   d 8 00 00 00 00 00 00 00 00
 6.205531 1  A3              Rx   d 8 F3 C5 35 1F 10 00 00 00
 6.205531 1  AB              Rx   d 8 00 00 00 00 00 08 00 00
 6.218097 1  B1              Rx   d 8 A5 00 5B FF 00 00 00 00
 6.222376 1  800x            Rx   d 8 00 00 00 00 00 00 00 00
 6.222376 1  A3              Rx   d 8 F3 C5 35 1F 10 00 00 00
 6.231807 1  A4              Rx   d 8 00 00 00 00 00 01 00 00
 6.237411 1  800x            Rx   d 8 00 00 00 00 00 00 00 00
 6.243120 1  800x            Rx   d 8 00 00 00 00 00 00 00 00
 6.244316 1  A3              Rx   d 8 F3 C5 35 1F 10 00 00 00
 6.249107 1  A4              Rx   d 8 00 00 00 00 00 01 00 00
 6.253351 1  B1              Rx   d 8 A5 00 5B FF 00 00 00 00
 6.253351 1  800x            Rx   d 8 00 00 00 00 00 00 00 00
 6.266077 1  800x            Rx   d 8 00 00 00 00 00 00 00 00
 6.269370 1  A3              Rx   d 8 F3 C5 35 1F 10 00 00 00
 6.269370 1  AD              Rx   d 8 70 00 00 00 00 00 00 00
 6.280648 1  AE              Rx   d 8 10 00 30 65 24 05 24 20
 6.284539 1  800x            Rx   d 8 00 00 00 00 00 00 00 00
 6.284539 1  800x            Rx   d 8 00 00 00 00 00 00 00 00
 6.284539 1  A3              Rx   d 8 F3 C5 35 1F 10 00 00 00
 6.300459 1  B1              Rx   d 8 A5 00 5B FF 00 00 00 00
 6.300459 1  800x            Rx   d 8 00 00 00 00 00 00 00 00
 6.300459 1  A3              Rx   d 8 F3 C5 35 1F 10 00 00 00
 6.300459 1  A4              Rx   d 8 00 00 00 00 00 01 00 00
 6.316562 1  800x            Rx   d 8 00 00 00 00 00 00 00 00
 6.316562 1  800x            Rx   d 8 00 00 00 00 00 00 00 00
 6.316562 1  A3              Rx   d 8 F3 C5 35 1F 10 00 00 00
 6.332588 1  A4              Rx   d 8 00 00 00 00 00 01 00 00
 6.332588 1  B1              Rx   d 8 A5 00 5B FF 00 00 00 00
 6.332588 1  800x            Rx   d 8 00 00 00 00 00 00 00 00
 6.348413 1  800x            Rx   d 8 00 00 00 00 00 00 00 00
 6.348413 1  A3              Rx   d 8 F3 C5 35 1F 10 00 00 00
 6.359545 1  A6              Rx   d 8 02 00 00 00 00 00 00 00
 6.364188 1  B1              Rx   d 8 A5 00 5B FF 00 00 00 00
 6.365541 1  800x            Rx   d 8 00 00 00 00 00 00 00 00
 6.365541 1  800x            Rx   d 8 00 00 00 00 00 00 00 00
 6.365541 1  A0              Rx   d 8 18 01 0C 01 0B 01 72 01
 6.380656 1  B1              Rx   d 8 A5 00 5B FF 00 00 00 00
 6.380656 1  800x            Rx   d 8 00 00 00 00 00 00 00 00
 6.380656 1  A3              Rx   d 8 F3 C5 35 1F 10 00 00 00
 6.396324 1  A4              Rx   d 8 00 00 00 00 00 01 00 00
 6.400959 1  B1              Rx   d 8 A5 00 5B FF 00 00 00 00
 6.400959 1  800x            Rx   d 8 00 00 00 00 00 00 00 00
 6.413028 1  800x            Rx   d 8 00 00 00 00 00 00 00 00
 6.418028 1  A3              Rx   d 8 F3 C5 35 1F 10 00 00 00
 6.419218 1  A6              Rx   d 8 FE FF 0B 00 00 00 00 00
 6.427737 1  B1              Rx   d 8 A5 00 5B FF 00 00 00 00
 6.430272 1  800x            Rx   d 8 00 00 00 00 00 00 00 00
 6.430272 1  800x            Rx   d 8 00 00 00 00 00 00 00 00
 6.430272 1  A3              Rx   d 8 F3 C5 35 1F 10 00 00 00
 6.443517 1  B1              Rx   d 8 A5 00 5B FF 00 00 00 00
 6.443517 1  800x            Rx   d 8 00 00 00 00 00 00 00 00
 6.443517 1  800x            Rx   d 8 00 00 00 00 00 00 00 00
 6.459500 1  A3              Rx   d 8 F3 C5 35 1F 10 00 00 00
 6.459500 1  B1              Rx   d 8 A5 00 5B FF 00 00 00 00
 6.459500 1  800x            Rx   d 8 00 00 00 00 00 00 00 00
 6.475502 1  A0              Rx   d 8 18 01 0D 01 0B 01 72 01
 6.480612 1  A1              Rx   d 8 44 01 B8 0B B8 0B CD 01
 6.480612 1  A8              Rx   d 8 00 00 FA FF 06 00 FA FF
 6.480612 1  800x            Rx   d 8 00 00 00 00 00 00 00 00
 6.496487 1  800x            Rx   d 8 00 00 00 00 00 00 00 00
 6.499120 1  A3              Rx   d 8 F3 C5 35 1F 10 00 00 00
 6.505140 1  A4              Rx   d 8 00 00 00 00 00 01 00 00
 6.507147 1  B1              Rx   d 8 A5 00 5B FF 00 00 00 00
 6.507147 1  800x            Rx   d 8 00 00 00 00 00 00 00 00
 6.517120 1  800x            Rx   d 8 00 00 00 00 00 00 00 00
 6.523296 1  A3              Rx   d 8 F3 C5 35 1F 10 00 00 00
 6.523296 1  B1              Rx   d 8 A5 00 5B FF 00 00 00 00
 6.534044 1  800x            Rx   d 8 00 00 00 00 00 00 00 00
 6.540383 1  800x            Rx   d 8 00 00 00 00 00 00 00 00
 6.540383 1  A3              Rx   d 8 F3 C5 35 1F 10 00 00 00
 6.540383 1  A7              Rx   d 8 07 00 00 00 09 00 FB FF
 6.540383 1  B1              Rx   d 8 A5 00 5B FF 00 00 00 00
 6.555368 1  800x            Rx   d 8 00 00 00 00 00 00 00 00
 6.555368 1  A3              Rx   d 8 F3 C5 35 1F 10 00 00 00
 6.555368 1  A4              Rx   d 8 00 00 00 00 00 01 00 00
 6.571370 1  800x            Rx   d 8 00 00 00 00 00 00 00 00
 6.571370 1  800x            Rx   d 8 00 00 00 00 00 00 00 00
 6.580794 1  A0              Rx   d 8 18 01 0D 01 0B 01 72 01
 6.587373 1  AE              Rx   d 8 10 00 30 65 24 05 24 20
 6.587373 1  B1              Rx   d 8 A5 00 5B FF 00 00 00 00
 6.587373 1  800x            Rx   d 8 00 00 00 00 00 00 00 00
 6.603130 1  800x            Rx   d 8 00 00 00 00 00 00 00 00
 6.605146 1  A3              Rx   d 8 F3 C9 35 1F 10 00 00 00
 6.612497 1  A8              Rx   d 8 00 00 FB FF 02 00 02 00
 6.614538 1  B1              Rx   d 8 A5 00 5B FF 00 00 00 00
 6.621676 1  800x            Rx   d 8 00 00 00 00 00 00 00 00
 6.623684 1  800x            Rx   d 8 00 00 00 00 00 00 00 00
 6.623684 1  A3              Rx   d 8 F3 C5 35 1F 10 00 00 00
 6.635167 1  B1              Rx   d 8 A5 00 5B FF 00 00 00 00
 6.638523 1  800x            Rx   d 8 00 00 00 00 00 00 00 00
 6.638523 1  A3              Rx   d 8 F3 C5 35 1F 10 00 00 00
 6.650683 1  A4              Rx   d 8 00 00 00 00 00 01 00 00
 6.650683 1  800x            Rx   d 8 00 00 00 00 00 00 00 00
 6.650683 1  800x            Rx   d 8 00 00 00 00 00 00 00 00
 6.666561 1  A3              Rx   d 8 F3 C5 35 1F 10 00 00 00
 6.666561 1  A4              Rx   d 8 00 00 00 00 00 01 00 00
 6.666561 1  AB              Rx   d 8 00 00 00 00 00 08 00 00
 6.666561 1  800x            Rx   d 8 00 00 00 00 00 00 00 00
 6.682476 1  A0              Rx   d 8 18 01 0C 01 0B 01 72 01
 6.682476 1  AE              Rx   d 8 10 00 30 65 24 05 24 20
 6.682476 1  A3              Rx   d 8 F3 C5 35 1F 10 00 00 00
 6.698560 1  B1              Rx   d 8 A5 00 5B FF 00 00 00 00
 6.698560 1  800x            Rx   d 8 00 00 00 00 00 00 00 00
 6.698560 1  800x            Rx   d 8 00 00 00 00 00 00 00 00
 6.714348 1  A3              Rx   d 8 F3 C5 35 1F 10 00 00 00
 6.714348 1  B1              Rx   d 8 A5 00 5B FF 00 00 00 00
 6.714348 1  800x            Rx   d 8 00 00 00 00 00 00 00 00
 6.714348 1  A3              Rx   d 8 F3 C5 35 1F 10 00 00 00
 6.732139 1  A4              Rx   d 8 00 00 00 00 00 01 00 00
 6.732139 1  AA              Rx   d 8 07 0C 09 08 00 F0 C0 00
 6.732139 1  800x            Rx   d 8 00 00 00 00 00 00 00 00
 6.746235 1  800x            Rx   d 8 00 00 00 00 00 00 00 00
 6.749364 1  A3              Rx   d 8 F3 C5 35 1F 10 00 00 00
 6.754818 1  A4              Rx   d 8 00 00 00 00 00 01 00 00
 6.761964 1  B1              Rx   d 8 A5 00 5B FF 00 00 00 00
 6.762532 1  800x            Rx   d 8 00 00 00 00 00 00 00 00
 6.762532 1  800x            Rx   d 8 00 00 00 00 00 00 00 00
 6.762532 1  A3              Rx   d 8 F3 C5 35 1F 10 00 00 00
 6.781162 1  B1              Rx   d 8 A5 00 5B FF 00 00 00 00
 6.784122 1  800x            Rx   d 8 00 00 00 00 00 00 00 00
 6.784122 1  AE              Rx   d 8 10 00 30 65 24 05 24 20
 6.793440 1  800x            Rx   d 8 00 00 00 00 00 00 00 00
 6.793440 1  A8              Rx   d 8 00 00 FC FF 09 00 02 00
 6.793440 1  B1              Rx   d 8 A5 00 5B FF 00 00 00 00
 6.809350 1  800x            Rx   d 8 00 00 00 00 00 00 00 00
 6.809350 1  A3              Rx   d 8 F3 C5 35 1F 10 00 00 00
 6.819339 1  A4              Rx   d 8 00 00 00 00 00 01 00 00
 6.825241 1  800x            Rx   d 8 00 00 00 00 00 00 00 00
 6.825241 1  800x            Rx   d 8 00 00 00 00 00 00 00 00
 6.825241 1  A3              Rx   d 8 F3 C5 35 1F 10 00 00 00
 6.825241 1  A4              Rx   d 8 00 00 00 00 00 01 00 00
 6.841372 1  B1              Rx   d 8 A5 00 5B FF 00 00 00 00
 6.841372 1  800x            Rx   d 8 00 00 00 00 00 00 00 00
 6.841372 1  800x            Rx   d 8 00 00 00 00 00 00 00 00
 6.860503 1  A3              Rx   d 8 F3 C5 35 1F 10 00 00 00
 6.862433 1  AA              Rx   d 8 07 0C 09 00 00 F0 C0 00
 6.862433 1  B1              Rx   d 8 A5 00 5B FF 00 00 00 00
 6.873146 1  800x            Rx   d 8 00 00 00 00 00 00 00 00
 6.873146 1  800x            Rx   d 8 00 00 00 00 00 00 00 00
 6.881188 1  A3              Rx   d 8 F3 C5 35 1F 10 00 00 00
 6.881188 1  B1              Rx   d 8 A5 00 5B FF 00 00 00 00
 6.889136 1  AE              Rx   d 8 10 00 30 65 24 05 24 20
 6.889136 1  800x            Rx   d 8 00 00 00 00 00 00 00 00
 6.889136 1  A3              Rx   d 8 F3 C5 35 1F 10 00 00 00
 6.907150 1  B1              Rx   d 8 A5 00 5B FF 00 00 00 00
 6.911173 1  800x            Rx   d 8 00 00 00 00 00 00 00 00
 6.911173 1  800x            Rx   d 8 00 00 00 00 00 00 00 00
 6.921842 1  A3              Rx   d 8 F3 C5 35 1F 10 00 00 00
 6.921842 1  AA              Rx   d 8 07 0C 09 00 00 F0 C0 00
 6.921842 1  800x            Rx   d 8 00 00 00 00 00 00 00 00
 6.937350 1  800x            Rx   d 8 00 00 00 00 00 00 00 00
 6.937350 1  A3              Rx   d 8 F3 C5 35 1F 10 00 00 00
 6.937350 1  A4              Rx   d 8 00 00 00 00 00 01 00 00
 6.937350 1  B1              Rx   d 8 A5 00 5B FF 00 00 00 00
 6.953393 1  800x            Rx   d 8 00 00 00 00 00 00 00 00
 6.953393 1  800x            Rx   d 8 00 00 00 00 00 00 00 00
 6.953393 1  A3              Rx   d 8 F3 C5 35 1F 10 00 00 00
 6.969119 1  B1              Rx   d 8 A5 00 5B FF 00 00 00 00
 6.969119 1  800x            Rx   d 8 00 00 00 00 00 00 00 00
 6.981065 1  A3              Rx   d 8 F3 C5 35 1F 10 00 00 00
 6.984982 1  A4              Rx   d 8 00 00 00 00 00 01 00 00
 6.984982 1  AC              Rx   d 8 00 00 00 00 2F 1B 08 00
 6.995328 1  AE              Rx   d 8 10 00 30 65 24 05 24 20
 6.999346 1  800x            Rx   d 8 00 00 00 00 00 00 00 00
 7.002099 1  A3              Rx   d 8 F3 C5 35 1F 11 00 00 00
 7.002099 1  A4              Rx   d 8 00 00 00 00 00 01 00 00
 7.002099 1  B1              Rx   d 8 A5 00 5B FF 00 00 00 00
 7.018880 1  800x            Rx   d 8 00 00 00 00 00 00 00 00
 7.020427 1  800x            Rx   d 8 00 00 00 00 00 00 00 00
 7.020427 1  A3              Rx   d 8 F3 C5 35 1F 10 00 00 00
 7.033282 1  B1              Rx   d 8 A5 00 5B FF 00 00 00 00
 7.033282 1  800x            Rx   d 8 00 00 00 00 00 00 00 00
 7.033282 1  800x            Rx   d 8 00 00 00 00 00 00 00 00
 7.049029 1  A3              Rx   d 8 F3 C5 35 1F 10 00 00 00
 7.053335 1  A8              Rx   d 8 00 00 FB FF 09 00 06 00
 7.055068 1  B1              Rx   d 8 A5 00 5B FF 00 00 00 00
 7.055068 1  800x            Rx   d 8 00 00 00 00 00 00 00 00
 7.066735 1  A3              Rx   d 8 F3 C5 35 1F 10 00 00 00
 7.071868 1  A4              Rx   d 8 00 00 00 00 00 01 00 00
 7.077721 1  800x            Rx   d 8 00 00 00 00 00 00 00 00
 7.083027 1  800x            Rx   d 8 00 00 00 00 00 00 00 00
 7.087063 1  A3              Rx   d 8 F3 C5 35 1F 10 00 00 00
 7.091103 1  A0              Rx   d 8 18 01 0D 01 0B 01 72 01
 7.096914 1  AE              Rx   d 8 10 00 30 65 24 05 24 20
 7.100950 1  800x            Rx   d 8 00 00 00 00 00 00 00 00
 7.102975 1  800x            Rx   d 8 00 00 00 00 00 00 00 00
 7.110664 1  A3              Rx   d 8 F3 C5 35 1F 10 00 00 00
 7.114931 1  AB              Rx   d 8 00 00 00 00 00 08 00 00
 7.119993 1  B1              Rx   d 8 A5 00 5B FF 00 00 00 00
 7.119993 1  800x            Rx   d 8 00 00 00 00 00 00 00 00
 7.131551 1  800x            Rx   d 8 00 00 00 00 00 00 00 00
 7.134477 1  A3              Rx   d 8 F3 C5 35 1F 10 00 00 00
 7.141260 1  B1              Rx   d 8 A5 00 5B FF 00 00 00 00
 7.143703 1  800x            Rx   d 8 00 00 00 00 00 00 00 00
 7.150292 1  A3              Rx   d 8 F3 C5 35 1F 10 00 00 00
 7.150292 1  A4              Rx   d 8 00 00 00 00 00 01 00 00
 7.159476 1  800x            Rx   d 8 00 00 00 00 00 00 00 00
 7.159476 1  800x            Rx   d 8 00 00 00 00 00 00 00 00
 7.170144 1  A3              Rx   d 8 F3 C5 35 1F 10 00 00 00
 7.175205 1  A4              Rx   d 8 00 00 00 00 00 01 00 00
 7.178133 1  AC              Rx   d 8 00 00 00 00 6E 1B 08 00
 7.181630 1  800x            Rx   d 8 00 00 00 00 00 00 00 00
 7.188596 1  800x            Rx   d 8 00 00 00 00 00 00 00 00
 7.190608 1  A0              Rx   d 8 18 01 0D 01 0B 01 72 01
 7.190608 1  A4              Rx   d 8 00 00 00 00 00 01 00 00
 7.190608 1  B1              Rx   d 8 A5 00 5B FF 00 00 00 00
 7.206418 1  800x            Rx   d 8 00 00 00 00 00 00 00 00
 7.206418 1  800x            Rx   d 8 00 00 00 00 00 00 00 00
 7.206418 1  A3              Rx   d 8 F3 C5 35 1F 10 00 00 00
 7.221761 1  B1              Rx   d 8 A5 00 5B FF 00 00 00 00
 7.221761 1  800x            Rx   d 8 00 00 00 00 00 00 00 00
 7.232344 1  A3              Rx   d 8 F3 C5 35 1F 10 00 00 00
 7.237036 1  A4              Rx   d 8 00 00 00 00 00 01 00 00
 7.240028 1  AD              Rx   d 8 96 00 00 00 00 00 00 00
 7.245127 1  800x            Rx   d 8 00 00 00 00 00 00 00 00
 7.252769 1  800x            Rx   d 8 00 00 00 00 00 00 00 00
 7.255010 1  A3              Rx   d 8 F3 C5 35 1F 10 00 00 00
 7.261356 1  A4              Rx   d 8 00 00 00 00 00 01 00 00
 7.266844 1  B1              Rx   d 8 A5 00 5B FF 00 00 00 00
 7.268714 1  800x            Rx   d 8 00 00 00 00 00 00 00 00
 7.275103 1  800x            Rx   d 8 00 00 00 00 00 00 00 00
 7.281107 1  A3              Rx   d 8 F3 C5 35 1F 10 00 00 00
 7.284389 1  B1              Rx   d 8 A5 00 5B FF 00 00 00 00
 7.288317 1  800x            Rx   d 8 00 00 00 00 00 00 00 00
 7.288317 1  A0              Rx   d 8 18 01 0C 01 0B 01 72 01
 7.300139 1  AE              Rx   d 8 10 00 30 65 24 05 24 20
 7.300139 1  AC              Rx   d 8 00 00 00 00 98 1B 08 00
 7.300139 1  B1              Rx   d 8 A5 00 5B FF 00 00 00 00
 7.300139 1  800x            Rx   d 8 00 00 00 00 00 00 00 00
 7.320131 1  A3              Rx   d 8 F3 C5 35 1F 10 00 00 00
 7.320131 1  A4              Rx   d 8 00 00 00 00 00 01 00 00
 7.320131 1  800x            Rx   d 8 00 00 00 00 00 00 00 00
 7.335307 1  800x            Rx   d 8 00 00 00 00 00 00 00 00
 7.338958 1  A3              Rx   d 8 F3 C5 35 1F 10 00 00 00
 7.340516 1  A4              Rx   d 8 00 00 00 00 00 01 00 00
 7.347450 1  B1              Rx   d 8 A5 00 5B FF 00 00 00 00
 7.349902 1  800x            Rx   d 8 00 00 00 00 00 00 00 00
 7.349902 1  800x            Rx   d 8 00 00 00 00 00 00 00 00
 7.363230 1  A3              Rx   d 8 F3 C5 35 1F 10 00 00 00
 7.363230 1  AB              Rx   d 8 00 00 00 00 00 08 00 00
 7.363230 1  B1              Rx   d 8 A5 00 5B FF 00 00 00 00
 7.377368 1  800x            Rx   d 8 00 00 00 00 00 00 00 00
 7.383129 1  800x            Rx   d 8 00 00 00 00 00 00 00 00
 7.387146 1  A3              Rx   d 8 F3 C5 35 1F 10 00 00 00
 7.393171 1  B1              Rx   d 8 A5 00 5B FF 00 00 00 00
 7.398284 1  800x            Rx   d 8 00 00 00 00 00 00 00 00
 7.398284 1  AE              Rx   d 8 10 00 30 65 24 05 24 20
 7.398284 1  A3              Rx   d 8 F3 C5 35 1F 10 00 00 00
 7.410724 1  800x            Rx   d 8 00 00 00 00 00 00 00 00
 7.410724 1  800x            Rx   d 8 00 00 00 00 00 00 00 00
 7.422237 1  A3              Rx   d 8 F3 C5 35 1F 10 00 00 00
 7.427550 1  A4              Rx   d 8 00 00 00 00 00 01 00 00
 7.427550 1  AD              Rx   d 8 D7 00 00 00 00 00 00 00
 7.435828 1  800x            Rx   d 8 00 00 00 00 00 00 00 00
 7.435828 1  800x            Rx   d 8 00 00 00 00 00 00 00 00
 7.446516 1  A3              Rx   d 8 F3 C5 35 1F 10 00 00 00
 7.446516 1  A5              Rx   d 8 55 06 F5 FF 00 00 4C 02
 7.446516 1  B1              Rx   d 8 A5 00 5B FF 00 00 00 00
 7.458526 1  800x            Rx   d 8 00 00 00 00 00 00 00 00
 7.465889 1  800x            Rx   d 8 00 00 00 00 00 00 00 00
 7.465889 1  A3              Rx   d 8 F3 C5 35 1F 10 00 00 00
 7.474302 1  B1              Rx   d 8 A5 00 5B FF 00 00 00 00
 7.477334 1  800x            Rx   d 8 00 00 00 00 00 00 00 00
 7.481068 1  A3              Rx   d 8 F3 C5 35 1F 10 00 00 00
 7.490022 1  A4              Rx   d 8 00 00 00 00 00 01 00 00
 7.490022 1  B1              Rx   d 8 A5 00 5B FF 00 00 00 00
 7.498846 1  800x            Rx   d 8 00 00 00 00 00 00 00 00
 7.498846 1  AE              Rx   d 8 10 00 30 65 24 05 24 20
 7.506630 1  800x            Rx   d 8 00 00 00 00 00 00 00 00
 7.513202 1  A5              Rx   d 8 8D 04 F5 FF 00 00 CF FF
 7.517179 1  B1              Rx   d 8 A5 00 5B FF 00 00 00 00
 7.521991 1  800x            Rx   d 8 00 00 00 00 00 00 00 00
 7.529078 1  800x            Rx   d 8 00 00 00 00 00 00 00 00
 7.529594 1  A3              Rx   d 8 F3 C5 35 1F 10 00 00 00
 7.538575 1  B1              Rx   d 8 A5 00 5B FF 00 00 00 00
 7.541145 1  800x            Rx   d 8 00 00 00 00 00 00 00 00
 7.548934 1  800x            Rx   d 8 00 00 00 00 00 00 00 00
 7.553578 1  A3              Rx   d 8 F3 C5 35 1F 10 00 00 00
 7.560795 1  AC              Rx   d 8 00 00 00 00 EC 1B 08 00
 7.561959 1  B1              Rx   d 8 A5 00 5B FF 00 00 00 00
 7.567547 1  800x            Rx   d 8 00 00 00 00 00 00 00 00
 7.574505 1  A3              Rx   d 8 F3 C5 35 1F 10 00 00 00
 7.577778 1  A5              Rx   d 8 1D 03 F5 FF 00 00 A3 FE
 7.581309 1  800x            Rx   d 8 00 00 00 00 00 00 00 00
 7.585762 1  800x            Rx   d 8 00 00 00 00 00 00 00 00
 7.588738 1  A3              Rx   d 8 F3 C5 35 1F 10 00 00 00
 7.597145 1  A4              Rx   d 8 00 00 00 00 00 01 00 00
 7.599172 1  B1              Rx   d 8 A5 00 5B FF 00 00 00 00
 7.605896 1  AE              Rx   d 8 10 00 30 65 24 05 24 20
 7.608632 1  800x            Rx   d 8 00 00 00 00 00 00 00 00
 7.616090 1  A3              Rx   d 8 F3 C5 35 1F 10 00 00 00
 7.621551 1  AC              Rx   d 8 00 00 00 00 01 1C 08 00
 7.625098 1  B1              Rx   d 8 A5 00 5B FF 00 00 00 00
 7.630075 1  800x            Rx   d 8 00 00 00 00 00 00 00 00
 7.635235 1  800x            Rx   d 8 00 00 00 00 00 00 00 00
 7.640056 1  A3              Rx   d 8 F3 C5 35 1F 10 00 00 00
 7.645238 1  B1              Rx   d 8 A5 00 5B FF 00 00 00 00
 7.649113 1  800x            Rx   d 8 00 00 00 00 00 00 00 00
 7.655254 1  A3              Rx   d 8 F3 C5 35 1F 10 00 00 00
 7.657807 1  A4              Rx   d 8 00 00 00 00 00 01 00 00
 7.663814 1  800x            Rx   d 8 00 00 00 00 00 00 00 00
 7.668948 1  800x            Rx   d 8 00 00 00 00 00 00 00 00
 7.674441 1  A3              Rx   d 8 F3 C5 35 1F 10 00 00 00
 7.677947 1  A4              Rx   d 8 00 00 00 00 00 01 00 00
 7.684641 1  B1              Rx   d 8 A5 00 5B FF 00 00 00 00
 7.688151 1  800x            Rx   d 8 00 00 00 00 00 00 00 00
 7.694286 1  800x            Rx   d 8 00 00 00 00 00 00 00 00
 7.698973 1  A3              Rx   d 8 F3 C5 35 1F 10 00 00 00
 7.703407 1  A5              Rx   d 8 4E 00 F6 FF 00 00 81 FE
 7.707425 1  AE              Rx   d 8 10 00 30 65 24 05 24 20
 7.713419 1  800x            Rx   d 8 00 00 00 00 00 00 00 00
 7.718665 1  800x            Rx   d 8 00 00 00 00 00 00 00 00
 7.722524 1  A3              Rx   d 8 F3 C5 35 1F 10 00 00 00
 7.722524 1  B1              Rx   d 8 A5 00 5B FF 00 00 00 00
 7.735619 1  800x            Rx   d 8 00 00 00 00 00 00 00 00
 7.737721 1  A3              Rx   d 8 F3 C5 35 1F 10 00 00 00
 7.743882 1  A4              Rx   d 8 00 00 00 00 00 01 00 00
 7.743882 1  B1              Rx   d 8 A5 00 5B FF 00 00 00 00
 7.754498 1  800x            Rx   d 8 00 00 00 00 00 00 00 00
 7.756429 1  800x            Rx   d 8 00 00 00 00 00 00 00 00
 7.761981 1  A3              Rx   d 8 F3 C5 35 1F 10 00 00 00
 7.766069 1  A5              Rx   d 8 69 0C F5 FF 00 00 3A FF
 7.771024 1  B1              Rx   d 8 A5 00 5B FF 00 00 00 00
 7.775987 1  800x            Rx   d 8 00 00 00 00 00 00 00 00
 7.781379 1  800x            Rx   d 8 00 00 00 00 00 00 00 00
 7.781379 1  A3              Rx   d 8 F3 C5 35 1F 10 00 00 00
 7.789326 1  B1              Rx   d 8 A5 00 5B FF 00 00 00 00
 7.795738 1  800x            Rx   d 8 00 00 00 00 00 00 00 00
 7.801489 1  800x            Rx   d 8 00 00 00 00 00 00 00 00
 7.801489 1  A0              Rx   d 8 18 01 0D 01 0B 01 72 01
